! 10/19/2020 13:28:32
! D:\MS4647AVNA\240M185F 200716XX\20071624.S2P
! CHANNEL.1
! TR.MEASUREMENT
! CORRECTED.DATA
# GHZ S RI R 50.0
! FREQ.GHZ         S11RE         S11IM         S21RE         S21IM         S12RE         S12IM         S22RE         S22IM         
!; PortSelection: Port_12
   0.040000000     0.0026424    0.0013361    -0.0000137   -0.0000033    -0.0000150   -0.0000393     1.0015090   -0.0024859 
   0.080000000     0.0033106    0.0014024     0.0000095    0.0000033     0.0000111    0.0000128     1.0009390   -0.0038558 
   0.120000000     0.0039304    0.0015579     0.0000108   -0.0000218    -0.0000056    0.0000151     1.0009390   -0.0060081 
   0.160000000     0.0043086    0.0019187     0.0000164   -0.0000030    -0.0000584    0.0000148     1.0009320   -0.0049022 
   0.200000000     0.0041805    0.0021943     0.0000210   -0.0000047     0.0000025   -0.0000070     1.0008900   -0.0067701 
   0.240000000     0.0042188    0.0017831    -0.0000118   -0.0000022    -0.0000011    0.0000027     1.0001500   -0.0085945 
   0.280000000     0.0049363    0.0015983    -0.0000152    0.0000077    -0.0000092   -0.0000101     1.0003180   -0.0092060 
   0.320000000     0.0055597    0.0021249     0.0000154    0.0000292     0.0000078   -0.0000128     1.0008250   -0.0099620 
   0.360000000     0.0053011    0.0026512     0.0000051   -0.0000251     0.0000150    0.0000332     0.9997541   -0.0125797 
   0.400000000     0.0047614    0.0023043    -0.0000087   -0.0000149     0.0000071   -0.0000007     1.0001850   -0.0127478 
   0.440000000     0.0051010    0.0015253     0.0000232    0.0000215     0.0000105    0.0000090     1.0000400   -0.0128774 
   0.480000000     0.0062270    0.0014880     0.0000014    0.0000115    -0.0000240    0.0000212     0.9997904   -0.0140929 
   0.520000000     0.0067239    0.0026101    -0.0000233    0.0000225     0.0000425   -0.0000179     0.9995277   -0.0189164 
   0.560000000     0.0053124    0.0032502     0.0000232    0.0000457    -0.0000075   -0.0000162     0.9993064   -0.0191318 
   0.600000000     0.0047927    0.0018377    -0.0000009   -0.0000436    -0.0000252    0.0001008     0.9992748   -0.0185913 
   0.640000000     0.0060203    0.0008129    -0.0000311    0.0000015    -0.0000006   -0.0000341     0.9991274   -0.0205714 
   0.680000000     0.0073702    0.0016414    -0.0000280    0.0000192    -0.0000038   -0.0000108     0.9990985   -0.0230463 
   0.720000000     0.0069222    0.0028854    -0.0000277   -0.0000140    -0.0000200    0.0000084     0.9997492   -0.0238525 
   0.760000000     0.0055266    0.0024943    -0.0000291    0.0000223    -0.0000313   -0.0000036     0.9999322   -0.0231121 
   0.800000000     0.0056866    0.0011001     0.0000069   -0.0000332    -0.0000028    0.0000061     0.9988257   -0.0250853 
   0.840000000     0.0071121    0.0006545     0.0000274   -0.0000140    -0.0000159   -0.0000028     0.9991840   -0.0286592 
   0.880000000     0.0080461    0.0020628     0.0000069   -0.0000374     0.0000277    0.0000263     1.0004080   -0.0280211 
   0.920000000     0.0067206    0.0031622    -0.0000068    0.0000213     0.0000043   -0.0000141     0.9998621   -0.0270137 
   0.960000000     0.0054566    0.0019309    -0.0000002   -0.0000099    -0.0000210    0.0000258     0.9987564   -0.0309647 
   1.000000000     0.0063232    0.0003960     0.0000094    0.0000262    -0.0000065    0.0000211     0.9997306   -0.0339154 
   1.040000000     0.0080326    0.0009242     0.0000190   -0.0000097    -0.0000127   -0.0000062     1.0006910   -0.0327469 
   1.080000000     0.0078373    0.0026360     0.0000134   -0.0000064    -0.0000232    0.0000206     0.9996479   -0.0329263 
   1.120000000     0.0060947    0.0027050     0.0000111    0.0000088     0.0000260   -0.0000099     0.9988644   -0.0367642 
   1.160000000     0.0056893    0.0009540    -0.0000300    0.0000100    -0.0000180   -0.0000296     0.9997180   -0.0392214 
   1.200000000     0.0073312    0.0001335    -0.0000146    0.0000126    -0.0000091    0.0000025     1.0000390   -0.0384349 
   1.240000000     0.0083904    0.0015772     0.0000212   -0.0000308    -0.0000077   -0.0000191     0.9992373   -0.0378443 
   1.280000000     0.0073801    0.0027628    -0.0000024   -0.0000177     0.0000166    0.0000058     0.9983643   -0.0415115 
   1.320000000     0.0059851    0.0020967    -0.0000071    0.0000105    -0.0000186   -0.0000087     0.9994270   -0.0436483 
   1.360000000     0.0062823    0.0006321     0.0000408   -0.0000092     0.0000522   -0.0000520     0.9996524   -0.0426522 
   1.400000000     0.0076875    0.0004854    -0.0000392   -0.0000116     0.0000082    0.0000225     0.9992006   -0.0439397 
   1.440000000     0.0080757    0.0016741     0.0000091    0.0000134    -0.0000083   -0.0000001     0.9987844   -0.0458736 
   1.480000000     0.0071753    0.0022165     0.0000120    0.0000046     0.0000097    0.0000201     0.9994435   -0.0480526 
   1.520000000     0.0065408    0.0014961    -0.0000014    0.0000070     0.0000483    0.0000348     0.9993502   -0.0477823 
   1.560000000     0.0072284    0.0006970     0.0000024   -0.0000281    -0.0000348    0.0000235     0.9990250   -0.0486682 
   1.600000000     0.0080337    0.0011093     0.0000369    0.0000053    -0.0000107   -0.0000005     0.9986131   -0.0508205 
   1.640000000     0.0078291    0.0019753     0.0000073   -0.0000162     0.0000379   -0.0000231     0.9984641   -0.0522216 
   1.680000000     0.0070267    0.0017897    -0.0000022   -0.0000241    -0.0000070   -0.0000200     0.9990339   -0.0520683 
   1.720000000     0.0071089    0.0009284    -0.0000172   -0.0000024    -0.0000104   -0.0000033     0.9989970   -0.0535449 
   1.760000000     0.0081029    0.0008859     0.0000333    0.0000408     0.0000349   -0.0000204     0.9986647   -0.0552260 
   1.800000000     0.0082861    0.0018130    -0.0000031    0.0000304    -0.0000114    0.0000085     0.9987093   -0.0561898 
   1.840000000     0.0073029    0.0019421    -0.0000236   -0.0000473    -0.0000200   -0.0000066     0.9981248   -0.0563776 
   1.880000000     0.0071705    0.0008696    -0.0000089   -0.0000350     0.0000007   -0.0000212     0.9986327   -0.0578308 
   1.920000000     0.0082789    0.0004597     0.0000385   -0.0000022    -0.0000093   -0.0000319     0.9986599   -0.0603435 
   1.960000000     0.0088443    0.0016378     0.0000309   -0.0000129    -0.0000508    0.0000132     0.9985971   -0.0598525 
   2.000000000     0.0076953    0.0022842     0.0000068   -0.0000143     0.0000076    0.0000155     0.9977071   -0.0605004 
   2.040000000     0.0070217    0.0010307    -0.0000346   -0.0000070     0.0000069   -0.0000094     0.9980304   -0.0627848 
   2.080000000     0.0082962   -0.0001250     0.0000090   -0.0000251    -0.0000501    0.0000329     0.9985884   -0.0633062 
   2.120000000     0.0094326    0.0010617    -0.0000166    0.0000102    -0.0000177    0.0000316     0.9974362   -0.0638897 
   2.160000000     0.0083012    0.0023645     0.0000214    0.0000082    -0.0000135    0.0000407     0.9970680   -0.0659588 
   2.200000000     0.0065583    0.0010019    -0.0000012    0.0000256     0.0000183   -0.0000112     0.9983889   -0.0671896 
   2.240000000     0.0078944   -0.0008824    -0.0000645    0.0000660     0.0000245   -0.0000681     0.9979169   -0.0661601 
   2.280000000     0.0101848   -0.0000605     0.0000024   -0.0000540     0.0000388    0.0000660     0.9958083   -0.0676410 
   2.320000000     0.0091245    0.0026916     0.0000019    0.0000851    -0.0000353    0.0000160     0.9984124   -0.0716330 
   2.360000000     0.0061739    0.0013897     0.0000396   -0.0000180    -0.0000241    0.0000245     1.0026240   -0.0715375 
   2.400000000     0.0064087   -0.0028139     0.0000393   -0.0000172     0.0000027   -0.0000055     0.9986748   -0.0680075 
   2.440000000     0.0111821   -0.0033849     0.0000283   -0.0000280    -0.0000971    0.0000085     0.9944965   -0.0719125 
   2.480000000     0.0127437    0.0018874     0.0000244    0.0000432    -0.0000050    0.0000423     0.9999470   -0.0758852 
   2.520000000     0.0092752    0.0002428     0.0000281   -0.0000737    -0.0000449    0.0000364     0.9950999   -0.0764235 
   2.560000000     0.0092396    0.0004334    -0.0000456   -0.0000092    -0.0000304    0.0000176     0.9950774   -0.0769538 
   2.600000000     0.0091518    0.0002746     0.0000362    0.0000616    -0.0000301    0.0000100     0.9946814   -0.0775937 
   2.640000000     0.0091176   -0.0000094    -0.0000415   -0.0000221     0.0000942   -0.0000019     0.9948345   -0.0777412 
   2.680000000     0.0093837   -0.0000859    -0.0000378    0.0000179    -0.0000381    0.0000246     0.9954253   -0.0792187 
   2.720000000     0.0095899   -0.0000269     0.0000228   -0.0000004    -0.0000064   -0.0000185     0.9950768   -0.0805950 
   2.760000000     0.0094022   -0.0000634     0.0000151    0.0000118    -0.0000173    0.0000182     0.9949406   -0.0809338 
   2.800000000     0.0092837   -0.0002709     0.0000016   -0.0000042    -0.0000256   -0.0000191     0.9946440   -0.0826106 
   2.840000000     0.0094353   -0.0005588     0.0000126   -0.0000305    -0.0000252    0.0000432     0.9948023   -0.0837187 
   2.880000000     0.0097335   -0.0007077     0.0000227   -0.0000055    -0.0000379   -0.0000186     0.9950183   -0.0846009 
   2.920000000     0.0097551   -0.0005593     0.0000329    0.0000071     0.0000176   -0.0000150     0.9939207   -0.0856020 
   2.960000000     0.0096090   -0.0005192     0.0000312   -0.0000113     0.0000027   -0.0000586     0.9943150   -0.0872929 
   3.000000000     0.0096335   -0.0008183     0.0000697    0.0000123     0.0000257   -0.0000502     0.9953643   -0.0877523 
   3.040000000     0.0095485   -0.0011964    -0.0000104   -0.0000297     0.0000045   -0.0000368     0.9948043   -0.0891570 
   3.080000000     0.0098213   -0.0012409    -0.0000406    0.0000241    -0.0000442    0.0000061     0.9939139   -0.0889002 
   3.120000000     0.0100134   -0.0011611     0.0000077   -0.0000033     0.0000282    0.0000084     0.9949511   -0.0897130 
   3.160000000     0.0099189   -0.0010206     0.0000077    0.0000431     0.0000081   -0.0000384     0.9949477   -0.0920298 
   3.200000000     0.0095456   -0.0012354     0.0000132   -0.0000257     0.0000328    0.0000170     0.9948959   -0.0931075 
   3.240000000     0.0095110   -0.0016752    -0.0000235   -0.0000218     0.0000095   -0.0000589     0.9937120   -0.0937172 
   3.280000000     0.0098962   -0.0019855    -0.0000387    0.0000231     0.0000160    0.0000187     0.9955765   -0.0935364 
   3.320000000     0.0101330   -0.0018733    -0.0000214   -0.0000002     0.0000334   -0.0000162     0.9951152   -0.0963960 
   3.360000000     0.0100424   -0.0017556     0.0000063    0.0000312    -0.0000237   -0.0000154     0.9941194   -0.0961974 
   3.400000000     0.0097373   -0.0018264    -0.0000105    0.0000236    -0.0000304    0.0000062     0.9949099   -0.0971424 
   3.440000000     0.0096339   -0.0021710     0.0000281   -0.0000694     0.0000357    0.0000098     0.9947085   -0.0979303 
   3.480000000     0.0098157   -0.0026082    -0.0000336    0.0000245    -0.0000643   -0.0000131     0.9946219   -0.1008446 
   3.520000000     0.0100591   -0.0025943     0.0000067   -0.0000111     0.0000104   -0.0000062     0.9940752   -0.1010780 
   3.560000000     0.0100492   -0.0024345    -0.0000338   -0.0000068     0.0000309   -0.0000141     0.9943830   -0.1007056 
   3.600000000     0.0097250   -0.0024137    -0.0000276   -0.0000126    -0.0000426    0.0000156     0.9947434   -0.1023790 
   3.640000000     0.0095567   -0.0027137    -0.0000292   -0.0000039    -0.0000294   -0.0000162     0.9937277   -0.1041946 
   3.680000000     0.0095954   -0.0031036     0.0000322   -0.0000073     0.0000374   -0.0000122     0.9933181   -0.1048006 
   3.720000000     0.0099306   -0.0032715    -0.0000214   -0.0000233    -0.0000272    0.0000324     0.9936984   -0.1055338 
   3.760000000     0.0098541   -0.0031586     0.0000114    0.0000021     0.0000132   -0.0000397     0.9947662   -0.1058049 
   3.800000000     0.0096034   -0.0031335     0.0000078    0.0000358    -0.0000001    0.0000203     0.9938501   -0.1081576 
   3.840000000     0.0094108   -0.0033245     0.0000365   -0.0000253    -0.0000109   -0.0000095     0.9926934   -0.1082669 
   3.880000000     0.0093919   -0.0037153    -0.0000336    0.0000041     0.0000504    0.0000099     0.9940445   -0.1103239 
   3.920000000     0.0094874   -0.0039358    -0.0000083   -0.0000603     0.0000013   -0.0000171     0.9940545   -0.1103332 
   3.960000000     0.0096673   -0.0038168     0.0000046   -0.0000025     0.0000656   -0.0000015     0.9930855   -0.1115350 
   4.000000000     0.0095057   -0.0038024     0.0000188   -0.0000174     0.0000193   -0.0000009     0.9923856   -0.1119851 
   4.040000000     0.0091931   -0.0039587    -0.0000079   -0.0000309     0.0000027   -0.0000315     0.9931348   -0.1127148 
   4.080000000     0.0090796   -0.0042953    -0.0000027   -0.0000211    -0.0000165   -0.0000112     0.9937564   -0.1145824 
   4.120000000     0.0091521   -0.0044819    -0.0000224    0.0000000     0.0000361    0.0000505     0.9929087   -0.1156126 
   4.160000000     0.0092758   -0.0046051    -0.0000089    0.0000278     0.0000047   -0.0000118     0.9916435   -0.1158681 
   4.200000000     0.0091347   -0.0044544     0.0000183    0.0000145     0.0000561   -0.0000198     0.9922377   -0.1174707 
   4.240000000     0.0089109   -0.0046014     0.0000078   -0.0000126    -0.0000026   -0.0000136     0.9930242   -0.1180357 
   4.280000000     0.0087560   -0.0047250     0.0000093    0.0000405     0.0000316   -0.0000069     0.9922240   -0.1201795 
   4.320000000     0.0087277   -0.0049426     0.0000117    0.0000084    -0.0000306   -0.0000273     0.9919118   -0.1198916 
   4.360000000     0.0086915   -0.0051552    -0.0000382    0.0000105     0.0000013    0.0000314     0.9925140   -0.1212055 
   4.400000000     0.0086903   -0.0050803    -0.0000172   -0.0000300    -0.0000224   -0.0000182     0.9923604   -0.1240123 
   4.440000000     0.0085405   -0.0051819    -0.0000309    0.0000216     0.0000181   -0.0000098     0.9918914   -0.1239722 
   4.480000000     0.0083733   -0.0053537     0.0000104   -0.0000009    -0.0000873    0.0000220     0.9920888   -0.1246673 
   4.520000000     0.0082852   -0.0054640     0.0000482   -0.0000148     0.0000257    0.0000297     0.9918729   -0.1261000 
   4.560000000     0.0081968   -0.0055259    -0.0000196    0.0000532    -0.0000046    0.0000070     0.9913496   -0.1275408 
   4.600000000     0.0080518   -0.0056868     0.0000208   -0.0000365    -0.0000061   -0.0000220     0.9911076   -0.1284623 
   4.640000000     0.0080065   -0.0058029    -0.0000213    0.0000144    -0.0000191    0.0000235     0.9916172   -0.1276171 
   4.680000000     0.0079092   -0.0058300     0.0000242    0.0000114    -0.0000361   -0.0000236     0.9911849   -0.1301267 
   4.720000000     0.0078076   -0.0058524    -0.0000448   -0.0000088     0.0000069   -0.0000180     0.9911866   -0.1305353 
   4.760000000     0.0075061   -0.0059801    -0.0000368    0.0000001     0.0000055   -0.0000031     0.9906957   -0.1322519 
   4.800000000     0.0074034   -0.0060084     0.0000564   -0.0000072    -0.0000029   -0.0000449     0.9910890   -0.1328470 
   4.840000000     0.0072041   -0.0062405    -0.0000034   -0.0000082     0.0000410   -0.0000129     0.9913645   -0.1346258 
   4.880000000     0.0073356   -0.0063162    -0.0000387    0.0000181     0.0000012   -0.0000075     0.9908334   -0.1356750 
   4.920000000     0.0072509   -0.0062861    -0.0000163    0.0000089    -0.0000035   -0.0000311     0.9897255   -0.1361229 
   4.960000000     0.0069711   -0.0062284    -0.0000182   -0.0000161    -0.0000190   -0.0000414     0.9907167   -0.1369125 
   5.000000000     0.0066519   -0.0064459    -0.0000521    0.0000068    -0.0000134   -0.0000266     0.9904906   -0.1394911 
   5.040000000     0.0064977   -0.0065617    -0.0000039   -0.0000482    -0.0000350    0.0000254     0.9896736   -0.1401392 
   5.080000000     0.0066098   -0.0067667    -0.0000165    0.0000289     0.0000333   -0.0000213     0.9886218   -0.1410339 
   5.120000000     0.0066206   -0.0065970    -0.0000072    0.0000273     0.0000103    0.0000406     0.9898552   -0.1417631 
   5.160000000     0.0062614   -0.0064638    -0.0000134    0.0000256    -0.0000120   -0.0000185     0.9903424   -0.1437773 
   5.200000000     0.0059124   -0.0065181    -0.0000217    0.0000413     0.0000130    0.0000056     0.9893357   -0.1446450 
   5.240000000     0.0056957   -0.0069014     0.0000016   -0.0000076    -0.0000219    0.0000012     0.9881670   -0.1447955 
   5.280000000     0.0057767   -0.0071145     0.0000306    0.0000196    -0.0000446   -0.0000228     0.9884071   -0.1466485 
   5.320000000     0.0058175   -0.0069682     0.0000288   -0.0000261     0.0000472   -0.0000424     0.9880248   -0.1479223 
   5.360000000     0.0055159   -0.0066283     0.0000046   -0.0000066    -0.0000072   -0.0000797     0.9888071   -0.1488659 
   5.400000000     0.0050894   -0.0066956    -0.0000267    0.0000507    -0.0000231   -0.0000114     0.9878784   -0.1497354 
   5.440000000     0.0048462   -0.0070736     0.0000214   -0.0000192    -0.0000006   -0.0000378     0.9887378   -0.1499828 
   5.480000000     0.0047939   -0.0074096     0.0000102    0.0000152    -0.0000385    0.0000166     0.9878771   -0.1521624 
   5.520000000     0.0050221   -0.0072178    -0.0000038    0.0000521    -0.0000276   -0.0000070     0.9867636   -0.1536583 
   5.560000000     0.0049077   -0.0068631    -0.0000011   -0.0000183     0.0000258    0.0000195     0.9871719   -0.1544591 
   5.600000000     0.0043208   -0.0067274    -0.0000153    0.0000360     0.0000107    0.0000160     0.9872475   -0.1560023 
   5.640000000     0.0038885   -0.0068989    -0.0000406    0.0000135    -0.0000258    0.0000007     0.9866667   -0.1576634 
   5.680000000     0.0039081   -0.0072899    -0.0000158    0.0000074     0.0000445    0.0000256     0.9863051   -0.1596353 
   5.720000000     0.0042183   -0.0072438     0.0000468   -0.0000106     0.0000277    0.0000373     0.9866517   -0.1600583 
   5.760000000     0.0040408   -0.0068892     0.0000264    0.0000226    -0.0000063   -0.0000448     0.9866138   -0.1610837 
   5.800000000     0.0035577   -0.0066411     0.0000190    0.0000382    -0.0000194   -0.0000174     0.9854218   -0.1623252 
   5.840000000     0.0031009   -0.0068391     0.0000267   -0.0000367    -0.0000185    0.0000508     0.9851356   -0.1642706 
   5.880000000     0.0029876   -0.0071782    -0.0000389   -0.0000641    -0.0000033   -0.0000432     0.9853266   -0.1653954 
   5.920000000     0.0031235   -0.0071785     0.0000253    0.0000032     0.0000177    0.0000345     0.9857940   -0.1666320 
   5.960000000     0.0030241   -0.0068215    -0.0000235   -0.0000596     0.0000081   -0.0000411     0.9845168   -0.1673617 
   6.000000000     0.0027702   -0.0064336    -0.0000161    0.0000074     0.0000326    0.0000425     0.9842623   -0.1692016 
   6.040000000     0.0022541   -0.0065276     0.0000278   -0.0000151     0.0000009   -0.0000082     0.9841149   -0.1710075 
   6.080000000     0.0020029   -0.0067553     0.0000539   -0.0000521     0.0000028    0.0000044     0.9843991   -0.1730266 
   6.120000000     0.0021158   -0.0068792    -0.0000092    0.0000028    -0.0000223    0.0000221     0.9834071   -0.1735958 
   6.160000000     0.0020413   -0.0066030    -0.0000170    0.0000130    -0.0000321   -0.0000153     0.9823124   -0.1748113 
   6.200000000     0.0018392   -0.0063894    -0.0000134    0.0000120     0.0000085   -0.0000102     0.9819911   -0.1760857 
   6.240000000     0.0014845   -0.0061709     0.0000011   -0.0000115     0.0000060   -0.0000335     0.9829804   -0.1787321 
   6.280000000     0.0012084   -0.0062891     0.0000059   -0.0000001    -0.0000174    0.0000401     0.9819388   -0.1799825 
