! 10/19/2020 13:25:50
! D:\MS4647AVNA\240M185F 200716XX\20071623.S2P
! CHANNEL.1
! TR.MEASUREMENT
! CORRECTED.DATA
# GHZ S RI R 50.0
! FREQ.GHZ         S11RE         S11IM         S21RE         S21IM         S12RE         S12IM         S22RE         S22IM         
!; PortSelection: Port_12
   0.040000000     0.0028708    0.0013422     0.0000024   -0.0000036    -0.0000042   -0.0000133     1.0017630   -0.0024285 
   0.080000000     0.0035841    0.0012004     0.0000193    0.0000084     0.0000027   -0.0000111     1.0008150   -0.0038392 
   0.120000000     0.0041370    0.0012098    -0.0000089    0.0000154     0.0000049    0.0000032     1.0012070   -0.0048007 
   0.160000000     0.0044472    0.0014905    -0.0000029   -0.0000005     0.0000355   -0.0000394     1.0008530   -0.0052945 
   0.200000000     0.0042546    0.0016531     0.0000041    0.0000101     0.0000041   -0.0000262     1.0001630   -0.0070164 
   0.240000000     0.0042079    0.0011871    -0.0000127    0.0000027     0.0000135    0.0000060     1.0002500   -0.0086604 
   0.280000000     0.0049231    0.0009061    -0.0000101    0.0000081    -0.0000085    0.0000034     1.0003220   -0.0092041 
   0.320000000     0.0054811    0.0014170     0.0000138   -0.0000103     0.0000007    0.0000087     0.9999871   -0.0105064 
   0.360000000     0.0052041    0.0018508    -0.0000083    0.0000179    -0.0000085    0.0000023     0.9996548   -0.0126824 
   0.400000000     0.0046357    0.0015058     0.0000152   -0.0000142    -0.0000135   -0.0000019     1.0001160   -0.0130917 
   0.440000000     0.0049473    0.0006233     0.0000006   -0.0000289     0.0000267    0.0000177     1.0001010   -0.0131639 
   0.480000000     0.0060153    0.0005213     0.0000196    0.0000011     0.0000206   -0.0000303     0.9997438   -0.0149081 
   0.520000000     0.0065123    0.0016277    -0.0000275   -0.0000054    -0.0000224   -0.0000078     0.9995033   -0.0182177 
   0.560000000     0.0051482    0.0022572    -0.0000225   -0.0000335     0.0000131   -0.0000326     0.9993197   -0.0189701 
   0.600000000     0.0044895    0.0006754    -0.0000216   -0.0000541    -0.0000416   -0.0000017     0.9985417   -0.0183797 
   0.640000000     0.0056275   -0.0003129     0.0000279    0.0000284    -0.0000091   -0.0000076     0.9990115   -0.0205528 
   0.680000000     0.0070000    0.0005043     0.0000275   -0.0000032     0.0000025    0.0000116     0.9990155   -0.0233212 
   0.720000000     0.0065178    0.0015808     0.0000045   -0.0000112     0.0000007    0.0000054     0.9996615   -0.0241640 
   0.760000000     0.0051543    0.0012080    -0.0000001   -0.0000067    -0.0000045   -0.0000050     0.9995614   -0.0229963 
   0.800000000     0.0052206   -0.0002822    -0.0000289    0.0000005     0.0000412    0.0000170     0.9986722   -0.0255095 
   0.840000000     0.0065113   -0.0007896     0.0000098    0.0000215    -0.0000266    0.0000292     0.9992868   -0.0288255 
   0.880000000     0.0074543    0.0005488    -0.0000264   -0.0000147     0.0000103    0.0000007     1.0004430   -0.0283824 
   0.920000000     0.0060703    0.0014691     0.0000012   -0.0000414     0.0000363    0.0000087     0.9998580   -0.0275974 
   0.960000000     0.0046479    0.0003323    -0.0000239   -0.0000378    -0.0000036    0.0000053     0.9984400   -0.0307267 
   1.000000000     0.0054229   -0.0012399    -0.0000109   -0.0000064    -0.0000141   -0.0000082     0.9998693   -0.0341264 
   1.040000000     0.0072004   -0.0008776    -0.0000004   -0.0000180     0.0000005   -0.0000062     1.0006880   -0.0332118 
   1.080000000     0.0069412    0.0008370    -0.0000021   -0.0000137     0.0000196    0.0000148     0.9997757   -0.0332709 
   1.120000000     0.0050557    0.0009240     0.0000365   -0.0000057    -0.0000300   -0.0000133     0.9988307   -0.0369164 
   1.160000000     0.0045789   -0.0008398     0.0000185    0.0000241     0.0000190    0.0000358     0.9993191   -0.0395826 
   1.200000000     0.0061115   -0.0017260    -0.0000156    0.0000262     0.0000006   -0.0000337     0.9999250   -0.0390061 
   1.240000000     0.0071478   -0.0003341    -0.0000574    0.0000124     0.0000024    0.0000304     0.9991273   -0.0384241 
   1.280000000     0.0060589    0.0008519    -0.0000034    0.0000215     0.0000018   -0.0000213     0.9985242   -0.0418590 
   1.320000000     0.0045191    0.0001685     0.0000137    0.0000207    -0.0000082   -0.0000086     0.9993130   -0.0438972 
   1.360000000     0.0048118   -0.0013605     0.0000317   -0.0000210    -0.0000034    0.0000035     0.9997118   -0.0432702 
   1.400000000     0.0061677   -0.0014510    -0.0000157   -0.0000476     0.0000064    0.0000242     0.9992867   -0.0439099 
   1.440000000     0.0064106   -0.0002694     0.0000023    0.0000314    -0.0000143   -0.0000171     0.9989268   -0.0466374 
   1.480000000     0.0053590    0.0001978     0.0000146   -0.0000024    -0.0000373   -0.0000076     0.9992058   -0.0483471 
   1.520000000     0.0047321   -0.0005859    -0.0000178   -0.0000368     0.0000077    0.0000087     0.9990196   -0.0486769 
   1.560000000     0.0053245   -0.0012762     0.0000004    0.0000413     0.0000169   -0.0000219     0.9990049   -0.0492109 
   1.600000000     0.0059828   -0.0008163     0.0000353   -0.0000041    -0.0000082    0.0000015     0.9984508   -0.0515695 
   1.640000000     0.0056344   -0.0000282    -0.0000005    0.0000006    -0.0000037   -0.0000031     0.9985841   -0.0524982 
   1.680000000     0.0047684   -0.0002556     0.0000024   -0.0000141    -0.0000239    0.0000217     0.9987659   -0.0527555 
   1.720000000     0.0048307   -0.0010255    -0.0000035   -0.0000047     0.0000297    0.0000239     0.9990200   -0.0539887 
   1.760000000     0.0057192   -0.0010269     0.0000087   -0.0000496    -0.0000294   -0.0000091     0.9983873   -0.0553110 
   1.800000000     0.0057210   -0.0001448     0.0000099   -0.0000276    -0.0000057    0.0000003     0.9986323   -0.0568983 
   1.840000000     0.0047071    0.0000023     0.0000494   -0.0000153     0.0000116   -0.0000059     0.9983129   -0.0571163 
   1.880000000     0.0045386   -0.0010011    -0.0000343    0.0000316     0.0000047    0.0000173     0.9984679   -0.0585224 
   1.920000000     0.0054782   -0.0013734     0.0000018   -0.0000405     0.0000163    0.0000460     0.9986799   -0.0608836 
   1.960000000     0.0060000   -0.0001951    -0.0000138    0.0000219    -0.0000121    0.0000128     0.9989359   -0.0603218 
   2.000000000     0.0047542    0.0005116    -0.0000168   -0.0000223    -0.0000278   -0.0000210     0.9977382   -0.0610072 
   2.040000000     0.0039808   -0.0007695    -0.0000808    0.0000325     0.0000394    0.0000359     0.9977880   -0.0632406 
   2.080000000     0.0051115   -0.0018121     0.0000182   -0.0000202     0.0000154   -0.0000239     0.9987067   -0.0641629 
   2.120000000     0.0061278   -0.0006225    -0.0000264   -0.0000363    -0.0000340    0.0000023     0.9974241   -0.0644902 
   2.160000000     0.0049065    0.0007047    -0.0000198    0.0000219     0.0000272    0.0000570     0.9971625   -0.0664706 
   2.200000000     0.0031527   -0.0004649     0.0000022    0.0000307    -0.0000344   -0.0000150     0.9981874   -0.0676997 
   2.240000000     0.0043052   -0.0023577    -0.0000304    0.0000241    -0.0000078    0.0000249     0.9986545   -0.0667206 
   2.280000000     0.0064953   -0.0014037     0.0000234    0.0000465     0.0000425   -0.0000214     0.9957747   -0.0684430 
   2.320000000     0.0053990    0.0012763     0.0000272    0.0000575     0.0000486   -0.0000364     0.9985387   -0.0722467 
   2.360000000     0.0023000    0.0000841    -0.0000774   -0.0000829    -0.0000032    0.0000080     1.0024790   -0.0721950 
   2.400000000     0.0025201   -0.0038635    -0.0000235    0.0000490    -0.0000558   -0.0000139     0.9983054   -0.0693135 
   2.440000000     0.0071741   -0.0043418     0.0000473    0.0000241    -0.0000625   -0.0000091     0.9946457   -0.0727516 
   2.480000000     0.0085310    0.0008456     0.0000068    0.0000308     0.0001097   -0.0000044     0.9998775   -0.0762273 
   2.520000000     0.0050097   -0.0006226     0.0000318   -0.0000205    -0.0000170    0.0000125     0.9952433   -0.0766930 
   2.560000000     0.0049745   -0.0004303     0.0000186   -0.0000370    -0.0000126   -0.0000081     0.9949140   -0.0771072 
   2.600000000     0.0049005   -0.0004812     0.0000184   -0.0000129    -0.0000291   -0.0000754     0.9943144   -0.0777796 
   2.640000000     0.0047383   -0.0006408     0.0000312   -0.0000309    -0.0000205    0.0000114     0.9947660   -0.0786507 
   2.680000000     0.0049624   -0.0006711    -0.0000137   -0.0000222    -0.0000408    0.0000110     0.9957188   -0.0798981 
   2.720000000     0.0050087   -0.0004392    -0.0000029    0.0000491    -0.0000198    0.0000165     0.9951014   -0.0814944 
   2.760000000     0.0047411   -0.0003438    -0.0000124   -0.0000126     0.0000117   -0.0000159     0.9950110   -0.0813608 
   2.800000000     0.0046287   -0.0004383    -0.0000051   -0.0000227     0.0000137    0.0000618     0.9948334   -0.0829557 
   2.840000000     0.0047386   -0.0006663     0.0000052   -0.0000368    -0.0000192   -0.0000578     0.9947451   -0.0842762 
   2.880000000     0.0048767   -0.0006880     0.0000285    0.0000202    -0.0000506    0.0000170     0.9948103   -0.0847246 
   2.920000000     0.0048553   -0.0004500     0.0000087   -0.0000179     0.0000228   -0.0000310     0.9941286   -0.0851982 
   2.960000000     0.0046791   -0.0002289    -0.0000272    0.0000080    -0.0000500    0.0000441     0.9944078   -0.0878088 
   3.000000000     0.0046419   -0.0004438     0.0000431    0.0000243     0.0000133    0.0000013     0.9952931   -0.0884489 
   3.040000000     0.0044468   -0.0007014     0.0000297   -0.0000294    -0.0000134    0.0000083     0.9949934   -0.0892503 
   3.080000000     0.0047237   -0.0005605     0.0000073   -0.0000106    -0.0000316   -0.0000183     0.9937875   -0.0885939 
   3.120000000     0.0048794   -0.0003716     0.0000082   -0.0000104    -0.0000294   -0.0000220     0.9948933   -0.0902725 
   3.160000000     0.0047282   -0.0001483    -0.0000186   -0.0000006     0.0000261   -0.0000016     0.9950222   -0.0920096 
   3.200000000     0.0043044   -0.0002453    -0.0000038    0.0000223    -0.0000067    0.0000203     0.9949921   -0.0927978 
   3.240000000     0.0042630   -0.0004459    -0.0000026    0.0000175    -0.0000664    0.0000003     0.9937712   -0.0933635 
   3.280000000     0.0046092   -0.0006731    -0.0000121   -0.0000093    -0.0000399    0.0000248     0.9960340   -0.0944971 
   3.320000000     0.0047836   -0.0003524     0.0000025    0.0000154    -0.0000355    0.0000109     0.9950969   -0.0962023 
   3.360000000     0.0046605   -0.0001390    -0.0000053    0.0000120    -0.0000379    0.0000301     0.9939308   -0.0968114 
   3.400000000     0.0044056   -0.0001091    -0.0000240    0.0000108     0.0000082    0.0000556     0.9946380   -0.0975377 
   3.440000000     0.0042804   -0.0002559    -0.0000024    0.0000036     0.0000409   -0.0000146     0.9946528   -0.0984212 
   3.480000000     0.0043758   -0.0006130    -0.0000049    0.0000084     0.0000077   -0.0000228     0.9944825   -0.1013239 
   3.520000000     0.0046143   -0.0003555    -0.0000071   -0.0000082    -0.0000088   -0.0000103     0.9940622   -0.1015377 
   3.560000000     0.0046274   -0.0001744     0.0000025    0.0000326    -0.0000045   -0.0000032     0.9945602   -0.1013070 
   3.600000000     0.0042320    0.0000289    -0.0000017    0.0000185    -0.0000367   -0.0000411     0.9950903   -0.1022365 
   3.640000000     0.0041586   -0.0001860    -0.0000140    0.0000171    -0.0000132   -0.0000033     0.9941301   -0.1042361 
   3.680000000     0.0041305   -0.0003591     0.0000329   -0.0000102     0.0000086    0.0000182     0.9931501   -0.1054631 
   3.720000000     0.0044903   -0.0003265     0.0000120    0.0000106    -0.0000474   -0.0000092     0.9937818   -0.1054438 
   3.760000000     0.0044395   -0.0001972     0.0000014    0.0000699     0.0000048   -0.0000212     0.9943339   -0.1064273 
   3.800000000     0.0042256    0.0000814    -0.0000504    0.0000319    -0.0000375    0.0000052     0.9938210   -0.1087609 
   3.840000000     0.0040265   -0.0000416    -0.0000032    0.0000030     0.0000637   -0.0000176     0.9926168   -0.1090182 
   3.880000000     0.0040336   -0.0002557     0.0000076   -0.0000291    -0.0000238   -0.0000204     0.9940308   -0.1103864 
   3.920000000     0.0041441   -0.0002950     0.0000360   -0.0000086    -0.0000304   -0.0000020     0.9936089   -0.1111235 
   3.960000000     0.0043910   -0.0000429     0.0000060   -0.0000113     0.0000099   -0.0000088     0.9925950   -0.1120485 
   4.000000000     0.0042502    0.0001136    -0.0000244    0.0000135    -0.0000062    0.0000171     0.9925192   -0.1127597 
   4.040000000     0.0040781    0.0001174     0.0000305    0.0000214     0.0000203   -0.0000144     0.9932408   -0.1136720 
   4.080000000     0.0040042   -0.0000486     0.0000359    0.0000186    -0.0000075    0.0000230     0.9935402   -0.1150902 
   4.120000000     0.0041268   -0.0001620    -0.0000127    0.0000284    -0.0000138    0.0000017     0.9927127   -0.1159514 
   4.160000000     0.0042337   -0.0000940     0.0000207    0.0000016    -0.0000023   -0.0000408     0.9916747   -0.1161684 
   4.200000000     0.0042176    0.0001754    -0.0000126   -0.0000109     0.0000156   -0.0000060     0.9922847   -0.1174459 
   4.240000000     0.0039882    0.0001944    -0.0000249   -0.0000004     0.0000065   -0.0000109     0.9925036   -0.1191705 
   4.280000000     0.0039506    0.0000449    -0.0000161    0.0000032    -0.0000100    0.0000502     0.9922828   -0.1203815 
   4.320000000     0.0039935    0.0000001    -0.0000033    0.0000083     0.0000132   -0.0000072     0.9917218   -0.1200202 
   4.360000000     0.0040421   -0.0000284     0.0000272   -0.0000042     0.0000035    0.0000197     0.9926112   -0.1223008 
   4.400000000     0.0040371    0.0001819     0.0000018   -0.0000170     0.0000130    0.0000067     0.9922060   -0.1240564 
   4.440000000     0.0039711    0.0001738     0.0000261   -0.0000082    -0.0000240   -0.0000147     0.9921786   -0.1245233 
   4.480000000     0.0039207    0.0001523    -0.0000209    0.0000311    -0.0000137   -0.0000048     0.9917939   -0.1242132 
   4.520000000     0.0039906    0.0001542     0.0000329   -0.0000099     0.0000018   -0.0000212     0.9917712   -0.1258895 
   4.560000000     0.0039854    0.0002478    -0.0000007    0.0000074     0.0000254   -0.0000079     0.9917657   -0.1276913 
   4.600000000     0.0038829    0.0001888     0.0000128    0.0000352    -0.0000058    0.0000017     0.9909145   -0.1288655 
   4.640000000     0.0038759    0.0001306    -0.0000114    0.0000164    -0.0000246   -0.0000124     0.9911740   -0.1282325 
   4.680000000     0.0039855    0.0002004     0.0000109   -0.0000287     0.0000103   -0.0000245     0.9916933   -0.1302769 
   4.720000000     0.0039386    0.0003188     0.0000287   -0.0000222     0.0000015    0.0000380     0.9905822   -0.1315658 
   4.760000000     0.0038513    0.0002737     0.0000055   -0.0000327    -0.0000022   -0.0000225     0.9905611   -0.1328176 
   4.800000000     0.0037854    0.0002901     0.0000106   -0.0000265     0.0000124    0.0000141     0.9909924   -0.1330460 
   4.840000000     0.0037251    0.0001764     0.0000079    0.0000086    -0.0000034    0.0000186     0.9908234   -0.1346868 
   4.880000000     0.0039220    0.0001511    -0.0000264   -0.0000194    -0.0000151   -0.0000320     0.9903336   -0.1360968 
   4.920000000     0.0039877    0.0003000     0.0000012   -0.0000069    -0.0000285   -0.0000209     0.9900169   -0.1369260 
   4.960000000     0.0038847    0.0004384     0.0000191   -0.0000235    -0.0000382   -0.0000528     0.9904640   -0.1372251 
   5.000000000     0.0037461    0.0003082     0.0000073    0.0000450     0.0000029   -0.0000199     0.9908341   -0.1396813 
   5.040000000     0.0036560    0.0002517     0.0000233    0.0000091    -0.0000333    0.0000056     0.9896837   -0.1402956 
   5.080000000     0.0038147    0.0001061    -0.0000370   -0.0000048     0.0000151   -0.0000367     0.9888182   -0.1412995 
   5.120000000     0.0040888    0.0003306     0.0000049    0.0000210     0.0000150    0.0000187     0.9901114   -0.1424974 
   5.160000000     0.0038189    0.0004726     0.0000185    0.0000095    -0.0000449   -0.0000274     0.9905500   -0.1436552 
   5.200000000     0.0035523    0.0004879     0.0000201   -0.0000245     0.0000117   -0.0000281     0.9890828   -0.1449454 
   5.240000000     0.0035301    0.0001361     0.0000158   -0.0000424    -0.0000136    0.0000033     0.9880900   -0.1457162 
   5.280000000     0.0037585   -0.0000031     0.0000066    0.0000149    -0.0000047   -0.0000695     0.9888471   -0.1470779 
   5.320000000     0.0040451    0.0002985     0.0000151   -0.0000104     0.0000539    0.0000303     0.9879861   -0.1485358 
   5.360000000     0.0039628    0.0005186    -0.0000061    0.0000208    -0.0000132   -0.0000057     0.9887276   -0.1494485 
   5.400000000     0.0035899    0.0005213     0.0000164    0.0000127     0.0000323   -0.0000617     0.9878495   -0.1504005 
   5.440000000     0.0034470    0.0002597     0.0000150    0.0000304    -0.0000249   -0.0000422     0.9886872   -0.1507572 
   5.480000000     0.0036573   -0.0000877     0.0000070   -0.0000351    -0.0000377   -0.0000097     0.9878661   -0.1534333 
   5.520000000     0.0040806    0.0000648    -0.0000087    0.0000275     0.0000084    0.0000087     0.9868471   -0.1539686 
   5.560000000     0.0040226    0.0004390    -0.0000015   -0.0000093    -0.0000355   -0.0000527     0.9873173   -0.1553194 
   5.600000000     0.0036194    0.0005978    -0.0000009    0.0000029    -0.0000077    0.0000015     0.9871784   -0.1562826 
   5.640000000     0.0033881    0.0003299    -0.0000083   -0.0000185     0.0000070    0.0000218     0.9868450   -0.1580346 
   5.680000000     0.0035866   -0.0000723     0.0000285    0.0000077     0.0000140   -0.0000248     0.9861575   -0.1603973 
   5.720000000     0.0039085    0.0000611     0.0000039   -0.0000125     0.0000250   -0.0000093     0.9865630   -0.1600205 
   5.760000000     0.0039978    0.0003442     0.0000048   -0.0000153    -0.0000042   -0.0000293     0.9862870   -0.1618353 
   5.800000000     0.0037646    0.0005235     0.0000371   -0.0000347    -0.0000056    0.0000059     0.9853334   -0.1626809 
   5.840000000     0.0033522    0.0004503    -0.0000264    0.0000244     0.0000223   -0.0000010     0.9851434   -0.1642921 
   5.880000000     0.0034830   -0.0000499     0.0000325   -0.0000073     0.0000049    0.0000287     0.9853629   -0.1658990 
   5.920000000     0.0037366   -0.0000767    -0.0000429   -0.0000015    -0.0000150    0.0000401     0.9857833   -0.1671711 
   5.960000000     0.0038819    0.0002032    -0.0000169   -0.0000161    -0.0000129    0.0000326     0.9843168   -0.1686643 
   6.000000000     0.0036897    0.0005231    -0.0000138   -0.0000155     0.0000056    0.0000064     0.9838498   -0.1700902 
   6.040000000     0.0034197    0.0003983     0.0000312   -0.0000015     0.0000112   -0.0000129     0.9841027   -0.1717774 
   6.080000000     0.0032980    0.0000562    -0.0000038   -0.0000203    -0.0000075    0.0000068     0.9842339   -0.1735901 
   6.120000000     0.0035753   -0.0000578    -0.0000494    0.0000133    -0.0000136   -0.0000341     0.9832170   -0.1744507 
   6.160000000     0.0037005    0.0000558    -0.0000116   -0.0000079    -0.0000584   -0.0000100     0.9822773   -0.1750153 
   6.200000000     0.0035897    0.0002354     0.0000371    0.0000299    -0.0000101    0.0000031     0.9822856   -0.1769827 
   6.240000000     0.0033671    0.0003843     0.0000290   -0.0000098    -0.0000080   -0.0000192     0.9828531   -0.1793832 
   6.280000000     0.0033400    0.0001208     0.0000124   -0.0000005     0.0000082    0.0000028     0.9818887   -0.1801123 
