! 11/1/2023 14:42:14
! D:\MS4647AVNA\185MM 231151XX\23115126.S2P
! CHANNEL.1
! TR.MEASUREMENT
! CORRECTED.DATA
# GHZ S RI R 50.0
! FREQ.GHZ         S11RE         S11IM         S21RE         S21IM         S12RE         S12IM         S22RE         S22IM         
!; PortSelection: Port_12
   0.040000000     0.0006260    0.0010990     0.9985579   -0.0161583     0.9999273   -0.0170090     0.0007600    0.0009050 
   0.080000000     0.0012487    0.0016080     0.9986109   -0.0323371     0.9971805   -0.0312160     0.0013287    0.0015517 
   0.120000000     0.0015238    0.0022738     0.9983364   -0.0463735     0.9977410   -0.0455422     0.0012878    0.0020661 
   0.160000000     0.0013906    0.0026751     0.9966972   -0.0616214     0.9958045   -0.0614339     0.0013360    0.0026375 
   0.200000000     0.0022112    0.0027209     0.9956445   -0.0760207     0.9950592   -0.0762926     0.0017397    0.0026420 
   0.240000000     0.0028718    0.0032785     0.9942629   -0.0906701     0.9938623   -0.0905885     0.0021148    0.0028320 
   0.280000000     0.0022878    0.0038474     0.9921369   -0.1064252     0.9922984   -0.1064492     0.0023143    0.0035311 
   0.320000000     0.0027607    0.0039347     0.9900247   -0.1208660     0.9906491   -0.1205685     0.0025891    0.0037918 
   0.360000000     0.0035029    0.0043142     0.9885368   -0.1373163     0.9883124   -0.1367757     0.0025472    0.0039415 
   0.400000000     0.0040087    0.0046245     0.9861958   -0.1524332     0.9859351   -0.1510728     0.0028200    0.0043092 
   0.440000000     0.0035790    0.0050520     0.9838269   -0.1670560     0.9836932   -0.1654368     0.0034639    0.0044225 
   0.480000000     0.0039745    0.0052908     0.9822518   -0.1799795     0.9812905   -0.1807585     0.0039441    0.0048252 
   0.520000000     0.0050481    0.0052277     0.9788487   -0.1957770     0.9772198   -0.1962996     0.0034288    0.0051032 
   0.560000000     0.0054174    0.0055579     0.9752168   -0.2112075     0.9733942   -0.2115636     0.0033696    0.0056819 
   0.600000000     0.0056516    0.0068482     0.9714180   -0.2234600     0.9710802   -0.2228496     0.0035367    0.0058796 
   0.640000000     0.0045898    0.0063066     0.9678103   -0.2375532     0.9676933   -0.2390413     0.0039400    0.0047743 
   0.680000000     0.0060464    0.0047665     0.9638737   -0.2526032     0.9636531   -0.2518336     0.0050617    0.0050094 
   0.720000000     0.0075116    0.0059533     0.9605770   -0.2668993     0.9595326   -0.2679684     0.0045273    0.0066571 
   0.760000000     0.0069921    0.0074900     0.9561656   -0.2806498     0.9552519   -0.2808586     0.0035876    0.0066298 
   0.800000000     0.0060577    0.0062768     0.9523789   -0.2964256     0.9512410   -0.2959223     0.0043329    0.0053759 
   0.840000000     0.0079966    0.0047727     0.9469473   -0.3101760     0.9450050   -0.3106843     0.0059878    0.0054773 
   0.880000000     0.0094791    0.0067061     0.9422244   -0.3233894     0.9420748   -0.3238834     0.0055952    0.0067584 
   0.920000000     0.0070979    0.0080515     0.9362338   -0.3392130     0.9359242   -0.3389935     0.0044923    0.0065756 
   0.960000000     0.0069360    0.0057494     0.9311014   -0.3515397     0.9328085   -0.3517770     0.0046604    0.0063094 
   1.000000000     0.0098268    0.0046276     0.9256369   -0.3661038     0.9259651   -0.3667519     0.0055590    0.0048754 
   1.040000000     0.0111344    0.0074942     0.9214232   -0.3791132     0.9203702   -0.3812313     0.0063040    0.0065579 
   1.080000000     0.0078944    0.0078732     0.9147552   -0.3929950     0.9139341   -0.3945475     0.0060849    0.0078032 
   1.120000000     0.0078035    0.0047134     0.9090348   -0.4074191     0.9079571   -0.4083638     0.0044416    0.0068050 
   1.160000000     0.0121708    0.0046165     0.9018728   -0.4212996     0.9016897   -0.4217710     0.0050084    0.0052869 
   1.200000000     0.0120220    0.0075660     0.8968298   -0.4336352     0.8947867   -0.4364873     0.0068884    0.0052476 
   1.240000000     0.0087626    0.0074766     0.8897447   -0.4469858     0.8889919   -0.4484856     0.0069888    0.0065027 
   1.280000000     0.0090897    0.0033878     0.8820824   -0.4602296     0.8812692   -0.4627159     0.0058386    0.0072795 
   1.320000000     0.0125324    0.0037817     0.8751935   -0.4742128     0.8740239   -0.4752060     0.0052375    0.0061019 
   1.360000000     0.0132180    0.0062292     0.8676006   -0.4861221     0.8678783   -0.4868093     0.0058212    0.0048645 
   1.400000000     0.0101722    0.0060386     0.8602807   -0.4992903     0.8591574   -0.5021352     0.0073381    0.0054158 
   1.440000000     0.0103747    0.0037219     0.8531546   -0.5133057     0.8524250   -0.5140044     0.0075725    0.0066012 
   1.480000000     0.0124887    0.0033507     0.8442553   -0.5257370     0.8445085   -0.5264693     0.0060199    0.0064847 
   1.520000000     0.0132339    0.0054228     0.8366936   -0.5379012     0.8364763   -0.5377756     0.0055537    0.0052782 
   1.560000000     0.0113506    0.0044225     0.8290814   -0.5505604     0.8278367   -0.5512912     0.0065712    0.0045976 
   1.600000000     0.0113295    0.0028670     0.8195183   -0.5624628     0.8197170   -0.5638235     0.0079450    0.0047772 
   1.640000000     0.0131690    0.0027031     0.8115032   -0.5746088     0.8105358   -0.5752895     0.0073343    0.0060899 
   1.680000000     0.0128676    0.0046096     0.8024864   -0.5875704     0.8029910   -0.5870894     0.0060577    0.0056643 
   1.720000000     0.0117777    0.0033447     0.7940596   -0.5983143     0.7932809   -0.5998654     0.0060988    0.0042164 
   1.760000000     0.0122675    0.0010386     0.7864683   -0.6104160     0.7827365   -0.6127604     0.0075034    0.0034362 
   1.800000000     0.0145805    0.0022398     0.7769114   -0.6226801     0.7725973   -0.6226728     0.0084750    0.0045791 
   1.840000000     0.0126108    0.0043879     0.7675729   -0.6340867     0.7642689   -0.6342182     0.0071276    0.0057600 
   1.880000000     0.0110131    0.0016830     0.7571921   -0.6467578     0.7561399   -0.6470495     0.0057423    0.0043987 
   1.920000000     0.0140304   -0.0009276     0.7470333   -0.6574564     0.7452560   -0.6578596     0.0070571    0.0025128 
   1.960000000     0.0152473    0.0027933     0.7369399   -0.6668231     0.7358119   -0.6678820     0.0083052    0.0036007 
   2.000000000     0.0103033    0.0035711     0.7276522   -0.6791205     0.7249244   -0.6798220     0.0080552    0.0050815 
   2.040000000     0.0106218   -0.0014957     0.7169845   -0.6895398     0.7153205   -0.6901348     0.0061253    0.0045209 
   2.080000000     0.0158093   -0.0019161     0.7070574   -0.7000003     0.7050630   -0.7001998     0.0064702    0.0020336 
   2.120000000     0.0145071    0.0035004     0.6959996   -0.7100362     0.6935594   -0.7116819     0.0082127    0.0025350 
   2.160000000     0.0083711    0.0008533     0.6874478   -0.7195287     0.6833624   -0.7210234     0.0075233    0.0044407 
   2.200000000     0.0119834   -0.0059341     0.6756518   -0.7302369     0.6722851   -0.7319618     0.0062103    0.0031100 
   2.240000000     0.0191544   -0.0012887     0.6630061   -0.7404150     0.6605053   -0.7424359     0.0074505    0.0004089 
   2.280000000     0.0120307    0.0058414     0.6532807   -0.7499408     0.6497992   -0.7510614     0.0096410    0.0015743 
   2.320000000     0.0055967   -0.0023835     0.6426701   -0.7595831     0.6386061   -0.7609137     0.0078701    0.0055703 
   2.360000000     0.0168248   -0.0083992     0.6293784   -0.7710049     0.6268858   -0.7702532     0.0043387    0.0048639 
   2.400000000     0.0243855    0.0063191     0.6193345   -0.7788717     0.6148396   -0.7791152     0.0031838   -0.0017802 
   2.440000000     0.0071068    0.0147970     0.6065081   -0.7867212     0.6039644   -0.7875513     0.0106608   -0.0026902 
   2.480000000    -0.0007990   -0.0070884     0.5938895   -0.7977613     0.5939124   -0.7961707     0.0132618    0.0041284 
   2.520000000     0.0112217   -0.0012836     0.5821396   -0.7999799     0.5785727   -0.8054225     0.0074019    0.0000380 
   2.560000000     0.0117791   -0.0012161     0.5685313   -0.8099206     0.5683964   -0.8132941     0.0076959   -0.0003111 
   2.600000000     0.0116693    0.0004126     0.5566011   -0.8190337     0.5550509   -0.8225024     0.0079385   -0.0006390 
   2.640000000     0.0112492   -0.0002617     0.5437809   -0.8305836     0.5414420   -0.8312677     0.0080722   -0.0005438 
   2.680000000     0.0102811   -0.0010194     0.5311421   -0.8362646     0.5289156   -0.8397709     0.0087403   -0.0006630 
   2.720000000     0.0110363   -0.0010797     0.5188268   -0.8452927     0.5153340   -0.8485025     0.0084372   -0.0012486 
   2.760000000     0.0121080   -0.0006365     0.5048815   -0.8556080     0.5033414   -0.8548019     0.0086141   -0.0007077 
   2.800000000     0.0106932    0.0001808     0.4917455   -0.8633052     0.4907991   -0.8628030     0.0089281   -0.0020153 
   2.840000000     0.0095850   -0.0021820     0.4772442   -0.8695025     0.4771218   -0.8705673     0.0077692   -0.0022474 
   2.880000000     0.0098900   -0.0018744     0.4662217   -0.8745854     0.4645800   -0.8777841     0.0084598   -0.0025725 
   2.920000000     0.0114779   -0.0009360     0.4543213   -0.8831251     0.4515002   -0.8818944     0.0082592   -0.0029432 
   2.960000000     0.0107712    0.0010240     0.4393741   -0.8906977     0.4384789   -0.8892499     0.0089644   -0.0033341 
   3.000000000     0.0095055   -0.0002836     0.4254651   -0.8956596     0.4249170   -0.8953276     0.0086521   -0.0033282 
   3.040000000     0.0096584   -0.0010618     0.4125620   -0.8999612     0.4109282   -0.9021562     0.0086198   -0.0041243 
   3.080000000     0.0105824   -0.0011236     0.4011306   -0.9064246     0.3981446   -0.9067432     0.0081089   -0.0045808 
   3.120000000     0.0106780    0.0007812     0.3873038   -0.9154711     0.3849089   -0.9146020     0.0093558   -0.0047520 
   3.160000000     0.0093304    0.0010135     0.3701212   -0.9188613     0.3701886   -0.9203808     0.0090630   -0.0051892 
   3.200000000     0.0088223   -0.0003619     0.3575911   -0.9242669     0.3562889   -0.9253815     0.0094504   -0.0051675 
   3.240000000     0.0098308   -0.0001031     0.3435157   -0.9288023     0.3419552   -0.9293342     0.0088643   -0.0057945 
   3.280000000     0.0098896    0.0019966     0.3325787   -0.9348533     0.3301896   -0.9359187     0.0089692   -0.0061284 
   3.320000000     0.0100448    0.0024693     0.3152105   -0.9417726     0.3136352   -0.9398829     0.0091712   -0.0068943 
   3.360000000     0.0082960    0.0013988     0.3007172   -0.9440886     0.3006503   -0.9438665     0.0095016   -0.0075049 
   3.400000000     0.0095303    0.0004453     0.2861022   -0.9477851     0.2866789   -0.9487157     0.0100154   -0.0069247 
   3.440000000     0.0097127    0.0013053     0.2760020   -0.9509289     0.2731663   -0.9532685     0.0097941   -0.0065545 
   3.480000000     0.0102000    0.0033306     0.2609695   -0.9591554     0.2568564   -0.9573312     0.0083269   -0.0079288 
   3.520000000     0.0078553    0.0027709     0.2438249   -0.9620605     0.2436754   -0.9599614     0.0094226   -0.0087569 
   3.560000000     0.0082495    0.0013716     0.2292992   -0.9631740     0.2295058   -0.9643736     0.0097951   -0.0092800 
   3.600000000     0.0097821    0.0014871     0.2163947   -0.9647167     0.2145674   -0.9674227     0.0103280   -0.0085141 
   3.640000000     0.0102025    0.0032881     0.2042921   -0.9704280     0.1994594   -0.9712026     0.0098902   -0.0090919 
   3.680000000     0.0095248    0.0039622     0.1868638   -0.9753609     0.1853991   -0.9724506     0.0093629   -0.0089554 
   3.720000000     0.0086022    0.0032550     0.1699414   -0.9760107     0.1709352   -0.9763330     0.0087728   -0.0103442 
   3.760000000     0.0100603    0.0025093     0.1577428   -0.9776028     0.1560530   -0.9785003     0.0102794   -0.0109961 
   3.800000000     0.0109722    0.0033967     0.1434238   -0.9789630     0.1421479   -0.9806953     0.0108319   -0.0111797 
   3.840000000     0.0094847    0.0047316     0.1306642   -0.9826486     0.1264868   -0.9817002     0.0106904   -0.0106275 
   3.880000000     0.0091448    0.0047453     0.1138499   -0.9869189     0.1124364   -0.9839615     0.0103184   -0.0110526 
   3.920000000     0.0098968    0.0037929     0.0977017   -0.9839357     0.0974577   -0.9853303     0.0091799   -0.0111082 
   3.960000000     0.0109783    0.0037298     0.0843633   -0.9866373     0.0822860   -0.9869030     0.0098058   -0.0131514 
   4.000000000     0.0110992    0.0049979     0.0699007   -0.9869878     0.0676350   -0.9879110     0.0107366   -0.0130021 
   4.040000000     0.0106773    0.0050594     0.0553845   -0.9904413     0.0528391   -0.9888198     0.0114756   -0.0125745 
   4.080000000     0.0103205    0.0043973     0.0377924   -0.9897984     0.0372944   -0.9895352     0.0100257   -0.0122043 
   4.120000000     0.0118114    0.0042175     0.0249865   -0.9896591     0.0233656   -0.9901266     0.0094933   -0.0130623 
   4.160000000     0.0120784    0.0049996     0.0097092   -0.9896089     0.0090221   -0.9898469     0.0094840   -0.0147864 
   4.200000000     0.0112376    0.0057710    -0.0025879   -0.9896199    -0.0064884   -0.9899685     0.0110452   -0.0148698 
   4.240000000     0.0114051    0.0056881    -0.0200807   -0.9918055    -0.0207561   -0.9894164     0.0115231   -0.0148992 
   4.280000000     0.0121972    0.0046309    -0.0349271   -0.9883916    -0.0354067   -0.9892597     0.0106331   -0.0139574 
   4.320000000     0.0136403    0.0049178    -0.0481063   -0.9877647    -0.0502352   -0.9887460     0.0104230   -0.0143439 
   4.360000000     0.0132697    0.0057054    -0.0628851   -0.9865334    -0.0649559   -0.9872704     0.0103969   -0.0158036 
   4.400000000     0.0126028    0.0056297    -0.0769742   -0.9873496    -0.0795090   -0.9864455     0.0106103   -0.0167021 
   4.440000000     0.0130974    0.0051619    -0.0939971   -0.9856930    -0.0945124   -0.9848475     0.0111770   -0.0166242 
   4.480000000     0.0140861    0.0046358    -0.1085749   -0.9832392    -0.1092375   -0.9831914     0.0113505   -0.0160104 
   4.520000000     0.0148217    0.0053915    -0.1224266   -0.9806678    -0.1243643   -0.9815316     0.0107609   -0.0162327 
   4.560000000     0.0141930    0.0054533    -0.1358533   -0.9795718    -0.1386092   -0.9798713     0.0099025   -0.0170881 
   4.600000000     0.0147958    0.0049513    -0.1516988   -0.9784791    -0.1536682   -0.9772596     0.0108132   -0.0183431 
   4.640000000     0.0152108    0.0050075    -0.1677683   -0.9769111    -0.1682720   -0.9750451     0.0108818   -0.0176051 
   4.680000000     0.0160341    0.0050429    -0.1828189   -0.9716691    -0.1827042   -0.9724819     0.0112801   -0.0181586 
   4.720000000     0.0160942    0.0046446    -0.1943569   -0.9687800    -0.1971170   -0.9694533     0.0106112   -0.0178481 
   4.760000000     0.0159171    0.0042244    -0.2093836   -0.9675125    -0.2119066   -0.9666377     0.0103239   -0.0189109 
   4.800000000     0.0166923    0.0049254    -0.2243298   -0.9644205    -0.2254336   -0.9626203     0.0104096   -0.0191793 
   4.840000000     0.0174213    0.0045238    -0.2398351   -0.9609610    -0.2400869   -0.9591511     0.0108402   -0.0192730 
   4.880000000     0.0174353    0.0037793    -0.2542040   -0.9551057    -0.2544004   -0.9559478     0.0109189   -0.0193831 
   4.920000000     0.0175417    0.0037105    -0.2661396   -0.9511992    -0.2683466   -0.9521626     0.0103016   -0.0193526 
   4.960000000     0.0183326    0.0033353    -0.2806376   -0.9492691    -0.2835912   -0.9473050     0.0106618   -0.0204766 
   5.000000000     0.0176299    0.0038583    -0.2966047   -0.9435689    -0.2968178   -0.9426840     0.0109573   -0.0203865 
   5.040000000     0.0185391    0.0029627    -0.3097221   -0.9399198    -0.3108978   -0.9389074     0.0111147   -0.0200008 
   5.080000000     0.0190303    0.0023818    -0.3237489   -0.9332032    -0.3247157   -0.9339913     0.0104723   -0.0202904 
   5.120000000     0.0195682    0.0023441    -0.3361507   -0.9287857    -0.3388800   -0.9293240     0.0099654   -0.0209295 
   5.160000000     0.0195320    0.0025631    -0.3511853   -0.9257871    -0.3521549   -0.9226074     0.0098701   -0.0217562 
   5.200000000     0.0195427    0.0024744    -0.3651514   -0.9182974    -0.3663668   -0.9184411     0.0103005   -0.0220502 
   5.240000000     0.0201618    0.0004225    -0.3792081   -0.9135823    -0.3801532   -0.9131685     0.0108037   -0.0217557 
   5.280000000     0.0211367    0.0009007    -0.3922303   -0.9060850    -0.3934999   -0.9066961     0.0099091   -0.0209541 
   5.320000000     0.0217307    0.0014319    -0.4039302   -0.9026922    -0.4076649   -0.8999113     0.0093965   -0.0216497 
   5.360000000     0.0206902    0.0015856    -0.4197156   -0.8956435    -0.4198999   -0.8951350     0.0088104   -0.0231878 
   5.400000000     0.0206898   -0.0000331    -0.4323086   -0.8886586    -0.4343697   -0.8880062     0.0100858   -0.0233020 
   5.440000000     0.0217198   -0.0008989    -0.4458691   -0.8821920    -0.4472032   -0.8814214     0.0103939   -0.0229695 
   5.480000000     0.0221507   -0.0002872    -0.4576555   -0.8744562    -0.4604592   -0.8748903     0.0096130   -0.0216029 
   5.520000000     0.0216608   -0.0002951    -0.4716220   -0.8701397    -0.4729360   -0.8677797     0.0089479   -0.0215014 
   5.560000000     0.0205136   -0.0010207    -0.4859626   -0.8606272    -0.4858915   -0.8605059     0.0075792   -0.0238413 
   5.600000000     0.0216667   -0.0020344    -0.4978214   -0.8538554    -0.4990496   -0.8529097     0.0088925   -0.0248424 
   5.640000000     0.0232985   -0.0024419    -0.5110877   -0.8452958    -0.5116087   -0.8448842     0.0102007   -0.0243989 
   5.680000000     0.0231856   -0.0015160    -0.5223125   -0.8377200    -0.5243846   -0.8373615     0.0097900   -0.0229291 
   5.720000000     0.0217940   -0.0017839    -0.5352670   -0.8312083    -0.5362284   -0.8296688     0.0082778   -0.0228433 
   5.760000000     0.0214293   -0.0031089    -0.5484113   -0.8225309    -0.5488428   -0.8213406     0.0065101   -0.0239127 
   5.800000000     0.0231870   -0.0042475    -0.5604859   -0.8144021    -0.5606257   -0.8127960     0.0074383   -0.0257393 
   5.840000000     0.0236278   -0.0039038    -0.5724853   -0.8037229    -0.5721657   -0.8051149     0.0092358   -0.0254720 
   5.880000000     0.0226975   -0.0035413    -0.5822849   -0.7962697    -0.5848715   -0.7960845     0.0093549   -0.0248356 
   5.920000000     0.0214334   -0.0049158    -0.5956825   -0.7899052    -0.5960926   -0.7868114     0.0078876   -0.0232186 
   5.960000000     0.0225163   -0.0057295    -0.6084669   -0.7784819    -0.6083401   -0.7782202     0.0063165   -0.0242191 
   6.000000000     0.0236304   -0.0060096    -0.6193430   -0.7697907    -0.6199049   -0.7687671     0.0059438   -0.0261400 
   6.040000000     0.0229833   -0.0055479    -0.6308305   -0.7585854    -0.6312216   -0.7589804     0.0076501   -0.0261106 
   6.080000000     0.0225992   -0.0056561    -0.6406897   -0.7514218    -0.6426104   -0.7497162     0.0081516   -0.0256110 
   6.120000000     0.0214291   -0.0074403    -0.6539119   -0.7413341    -0.6535512   -0.7403598     0.0071075   -0.0240248 
   6.160000000     0.0227815   -0.0080216    -0.6636905   -0.7311339    -0.6648566   -0.7305658     0.0058112   -0.0244809 
   6.200000000     0.0228702   -0.0075222    -0.6753398   -0.7208309    -0.6757181   -0.7205362     0.0051144   -0.0258292 
   6.240000000     0.0220675   -0.0073738    -0.6848145   -0.7098678    -0.6863217   -0.7102710     0.0062789   -0.0272311 
   6.280000000     0.0215039   -0.0087384    -0.6946719   -0.7019238    -0.6963550   -0.7000353     0.0070372   -0.0260601 
