! 10/19/2020 15:51:42
! D:\MS4647AVNA\240F185F 200318XX\20031819.S2P
! CHANNEL.1
! TR.MEASUREMENT
! CORRECTED.DATA
# GHZ S RI R 50.0
! FREQ.GHZ         S11RE         S11IM         S21RE         S21IM         S12RE         S12IM         S22RE         S22IM         
!; PortSelection: Port_12
   0.040000000     0.0033715    0.0022934     0.0000128   -0.0000258    -0.0000086   -0.0000258     1.0018100   -0.0027213 
   0.080000000     0.0046071    0.0028822     0.0000012    0.0000000    -0.0000063    0.0000032     1.0014250   -0.0033357 
   0.120000000     0.0060407    0.0031048    -0.0000025    0.0000017     0.0000034   -0.0000083     1.0015750   -0.0055432 
   0.160000000     0.0071638    0.0030895    -0.0000059   -0.0000108    -0.0000061   -0.0000070     1.0016700   -0.0068918 
   0.200000000     0.0076701    0.0027742    -0.0000165    0.0000069     0.0000229   -0.0000047     1.0008990   -0.0079954 
   0.240000000     0.0079674    0.0021898    -0.0000019    0.0000243    -0.0000231    0.0000117     1.0008520   -0.0091970 
   0.280000000     0.0083826    0.0017983     0.0000047    0.0000060     0.0000093    0.0000043     1.0012120   -0.0110647 
   0.320000000     0.0086567    0.0016668    -0.0000038   -0.0000068     0.0000011   -0.0000049     1.0013090   -0.0105206 
   0.360000000     0.0086772    0.0014150    -0.0000347   -0.0000039    -0.0000301    0.0000018     1.0006100   -0.0149261 
   0.400000000     0.0088266    0.0010552    -0.0000180    0.0000096    -0.0000095    0.0000042     1.0002920   -0.0157770 
   0.440000000     0.0090357    0.0005708    -0.0000161   -0.0000181     0.0000046    0.0000135     1.0010250   -0.0152645 
   0.480000000     0.0095462    0.0004924     0.0000377    0.0000092    -0.0000158    0.0000089     1.0009160   -0.0172871 
   0.520000000     0.0094932    0.0007921    -0.0000030   -0.0000058     0.0000193    0.0000384     1.0006610   -0.0182668 
   0.560000000     0.0091805    0.0003374    -0.0000170   -0.0000120    -0.0000538    0.0000773     1.0009640   -0.0211999 
   0.600000000     0.0096647   -0.0004121     0.0000020    0.0000495     0.0000223   -0.0000430     1.0012400   -0.0230940 
   0.640000000     0.0101705   -0.0000287     0.0000178   -0.0000322     0.0000530   -0.0000164     1.0024800   -0.0248952 
   0.680000000     0.0095927    0.0000748     0.0000030   -0.0000072     0.0000117    0.0000220     1.0000460   -0.0261772 
   0.720000000     0.0091735   -0.0009300     0.0000210   -0.0000242     0.0000364    0.0000128     1.0000400   -0.0277766 
   0.760000000     0.0098361   -0.0017051     0.0000215   -0.0000255     0.0000168   -0.0000310     1.0004970   -0.0286056 
   0.800000000     0.0103035   -0.0015390    -0.0000059   -0.0000065     0.0000116   -0.0000012     1.0001620   -0.0292820 
   0.840000000     0.0099859   -0.0013849    -0.0000009   -0.0000061    -0.0000007   -0.0000046     0.9993308   -0.0322535 
   0.880000000     0.0098875   -0.0019082    -0.0000084   -0.0000050     0.0000165   -0.0000034     1.0003020   -0.0336889 
   0.920000000     0.0098357   -0.0020969     0.0000079   -0.0000129     0.0000298   -0.0000240     1.0006620   -0.0334770 
   0.960000000     0.0096357   -0.0022565    -0.0000273   -0.0000091    -0.0000183   -0.0000177     0.9987432   -0.0350366 
   1.000000000     0.0096233   -0.0028191     0.0000061    0.0000162     0.0000304    0.0000009     0.9987975   -0.0380723 
   1.040000000     0.0097234   -0.0029359     0.0000130   -0.0000087    -0.0000260    0.0000059     1.0000020   -0.0385748 
   1.080000000     0.0097093   -0.0030543    -0.0000130   -0.0000211     0.0000321   -0.0000265     0.9992599   -0.0383847 
   1.120000000     0.0093030   -0.0031177    -0.0000112    0.0000118     0.0000178   -0.0000079     0.9978686   -0.0416072 
   1.160000000     0.0091948   -0.0037011    -0.0000171    0.0000173     0.0000127   -0.0000091     0.9990858   -0.0431746 
   1.200000000     0.0094491   -0.0040008    -0.0000122   -0.0000104     0.0000013    0.0000113     1.0000860   -0.0426506 
   1.240000000     0.0094438   -0.0036452     0.0000200    0.0000051    -0.0000150   -0.0000064     0.9983949   -0.0438388 
   1.280000000     0.0086173   -0.0036741    -0.0000336    0.0000115     0.0000029    0.0000019     0.9978437   -0.0470107 
   1.320000000     0.0082750   -0.0045776     0.0000003   -0.0000190    -0.0000204    0.0000643     0.9992855   -0.0486366 
   1.360000000     0.0089147   -0.0051125     0.0000416    0.0000112     0.0000061   -0.0000195     0.9989408   -0.0475066 
   1.400000000     0.0093514   -0.0044453    -0.0000015   -0.0000032    -0.0000204    0.0000247     0.9981169   -0.0499231 
   1.440000000     0.0085772   -0.0039316    -0.0000211   -0.0000002     0.0000164   -0.0000155     0.9980680   -0.0528083 
   1.480000000     0.0077371   -0.0046099     0.0000314   -0.0000161     0.0000160   -0.0000493     0.9983402   -0.0527014 
   1.520000000     0.0078427   -0.0054483     0.0000276   -0.0000158     0.0000329    0.0000175     0.9985037   -0.0531839 
   1.560000000     0.0084428   -0.0054499    -0.0000475   -0.0000032    -0.0000007    0.0000136     0.9979768   -0.0561431 
   1.600000000     0.0082077   -0.0048205     0.0000283   -0.0000148    -0.0000154    0.0000190     0.9986024   -0.0576023 
   1.640000000     0.0074826   -0.0049923    -0.0000243    0.0000247     0.0000230   -0.0000066     0.9982664   -0.0580851 
   1.680000000     0.0072700   -0.0054492    -0.0000011    0.0000050    -0.0000256   -0.0000052     0.9976321   -0.0594930 
   1.720000000     0.0074647   -0.0057449    -0.0000025    0.0000111     0.0000016    0.0000044     0.9979655   -0.0613211 
   1.760000000     0.0073181   -0.0055940    -0.0000195    0.0000186     0.0000125   -0.0000077     0.9974906   -0.0621616 
   1.800000000     0.0071373   -0.0056017    -0.0000328   -0.0000428     0.0000320   -0.0000320     0.9975275   -0.0633673 
   1.840000000     0.0068839   -0.0056813     0.0000200    0.0000155     0.0000020    0.0000260     0.9975247   -0.0649564 
   1.880000000     0.0066778   -0.0056899    -0.0000067   -0.0000218     0.0000246    0.0000460     0.9968163   -0.0656092 
   1.920000000     0.0064270   -0.0059117     0.0000370   -0.0000235     0.0000489   -0.0000117     0.9971008   -0.0670242 
   1.960000000     0.0063022   -0.0063115     0.0000730   -0.0000007    -0.0000313    0.0000025     0.9967721   -0.0688460 
   2.000000000     0.0064954   -0.0061516     0.0000266   -0.0000276    -0.0000148    0.0000119     0.9971391   -0.0699325 
   2.040000000     0.0062472   -0.0057988     0.0000295   -0.0000930     0.0000308    0.0000008     0.9971675   -0.0714162 
   2.080000000     0.0057671   -0.0057291    -0.0000537   -0.0000569     0.0000321   -0.0000529     0.9964734   -0.0725489 
   2.120000000     0.0054803   -0.0062703     0.0000113   -0.0000076    -0.0000120    0.0000100     0.9962981   -0.0732740 
   2.160000000     0.0056211   -0.0064758    -0.0000002   -0.0000722    -0.0000597   -0.0000152     0.9960932   -0.0748424 
   2.200000000     0.0055929   -0.0061372     0.0000500   -0.0000031     0.0000114   -0.0000088     0.9968706   -0.0769398 
   2.240000000     0.0052728   -0.0061673    -0.0000190    0.0000057    -0.0000542   -0.0000003     0.9965985   -0.0768910 
   2.280000000     0.0050013   -0.0060138    -0.0000004    0.0000929    -0.0000633    0.0000249     0.9951410   -0.0786882 
   2.320000000     0.0044896   -0.0064288    -0.0000655    0.0000126     0.0000189    0.0000036     0.9961017   -0.0811488 
   2.360000000     0.0046351   -0.0067606    -0.0000057   -0.0000662     0.0000233    0.0000227     0.9984347   -0.0817541 
   2.400000000     0.0051770   -0.0063761    -0.0000594    0.0000666     0.0000584    0.0000466     0.9963141   -0.0804422 
   2.440000000     0.0048385   -0.0055571     0.0000197    0.0001013    -0.0000301   -0.0000567     0.9935659   -0.0830024 
   2.480000000     0.0035636   -0.0055829     0.0000317   -0.0000334    -0.0000167   -0.0000224     0.9969665   -0.0865352 
   2.520000000     0.0038776   -0.0070060    -0.0000371   -0.0000737    -0.0000459   -0.0000797     0.9959176   -0.0861120 
   2.560000000     0.0040810   -0.0065374    -0.0000099    0.0000429    -0.0000694    0.0000321     0.9957300   -0.0864620 
   2.600000000     0.0035972   -0.0060740    -0.0000135   -0.0000186     0.0000295    0.0000106     0.9956574   -0.0868683 
   2.640000000     0.0032773   -0.0062918    -0.0000141   -0.0000276    -0.0000408    0.0000144     0.9948657   -0.0868886 
   2.680000000     0.0031063   -0.0063130     0.0000160    0.0000006     0.0000493   -0.0000245     0.9954729   -0.0884109 
   2.720000000     0.0030703   -0.0062776    -0.0000254   -0.0000046    -0.0000113   -0.0000082     0.9943195   -0.0889262 
   2.760000000     0.0028405   -0.0062199    -0.0000051   -0.0000274     0.0000104    0.0000462     0.9944965   -0.0900637 
   2.800000000     0.0026604   -0.0061768    -0.0000210   -0.0000342     0.0000133   -0.0000001     0.9934188   -0.0904351 
   2.840000000     0.0024205   -0.0061725    -0.0000179    0.0000224    -0.0000143    0.0000692     0.9936242   -0.0917291 
   2.880000000     0.0023103   -0.0060377    -0.0000234    0.0000317     0.0000072    0.0000021     0.9943330   -0.0935636 
   2.920000000     0.0020685   -0.0060262     0.0000009   -0.0000203     0.0000008    0.0000611     0.9941196   -0.0948199 
   2.960000000     0.0018590   -0.0059238     0.0000069    0.0000082     0.0000312    0.0000306     0.9944003   -0.0953191 
   3.000000000     0.0017677   -0.0057513    -0.0000064   -0.0000230    -0.0000262   -0.0000043     0.9948409   -0.0991629 
   3.040000000     0.0014536   -0.0057356    -0.0000049    0.0000032    -0.0000086    0.0000041     0.9945495   -0.0995737 
   3.080000000     0.0012299   -0.0057534     0.0000151   -0.0000018    -0.0000671   -0.0000068     0.9940929   -0.0996877 
   3.120000000     0.0012115   -0.0056894     0.0000219    0.0000386     0.0000127   -0.0000309     0.9941127   -0.1009185 
   3.160000000     0.0010181   -0.0054889    -0.0000241    0.0000564    -0.0000206   -0.0000079     0.9941357   -0.1031171 
   3.200000000     0.0007928   -0.0054269    -0.0000063   -0.0000321     0.0000136   -0.0000278     0.9939203   -0.1036386 
   3.240000000     0.0005207   -0.0053389     0.0000422   -0.0000112     0.0000165    0.0000087     0.9933782   -0.1040730 
   3.280000000     0.0005249   -0.0053251    -0.0000009    0.0000406    -0.0000316   -0.0000297     0.9938670   -0.1056925 
   3.320000000     0.0003609   -0.0051153     0.0000231    0.0000109    -0.0000105   -0.0000278     0.9938565   -0.1071295 
   3.360000000     0.0002253   -0.0049340     0.0000114    0.0000048    -0.0000169   -0.0000183     0.9934294   -0.1080011 
   3.400000000    -0.0000330   -0.0048797    -0.0000103   -0.0000480    -0.0000198    0.0000171     0.9930650   -0.1084818 
   3.440000000    -0.0001974   -0.0047573     0.0000314   -0.0000289     0.0000481    0.0000298     0.9932187   -0.1092679 
   3.480000000    -0.0003231   -0.0045552    -0.0000001   -0.0000114    -0.0000347   -0.0000048     0.9927724   -0.1118037 
   3.520000000    -0.0004716   -0.0044854     0.0000203    0.0000058     0.0000019   -0.0000020     0.9921250   -0.1123499 
   3.560000000    -0.0006359   -0.0043018     0.0000215   -0.0000121     0.0000080    0.0000185     0.9936728   -0.1130871 
   3.600000000    -0.0007729   -0.0040670    -0.0000289   -0.0000235    -0.0000355   -0.0000180     0.9930463   -0.1134971 
   3.640000000    -0.0008903   -0.0039531    -0.0000084   -0.0000011     0.0000249   -0.0000375     0.9921607   -0.1161901 
   3.680000000    -0.0009596   -0.0038920     0.0000050   -0.0000225     0.0000216    0.0000204     0.9917980   -0.1169730 
   3.720000000    -0.0010767   -0.0036487    -0.0000272    0.0000235     0.0000106    0.0000236     0.9929790   -0.1180292 
   3.760000000    -0.0011642   -0.0034733     0.0000191    0.0000195    -0.0000087   -0.0000314     0.9927075   -0.1185365 
   3.800000000    -0.0013987   -0.0033490     0.0000026    0.0000239     0.0000200   -0.0000165     0.9919214   -0.1204727 
   3.840000000    -0.0015393   -0.0032861     0.0000145    0.0000120     0.0000166    0.0000316     0.9914658   -0.1216320 
   3.880000000    -0.0015624   -0.0030869     0.0000330   -0.0000275    -0.0000488    0.0000312     0.9917423   -0.1227337 
   3.920000000    -0.0016056   -0.0029309    -0.0000306    0.0000095    -0.0000127    0.0000372     0.9919944   -0.1247839 
   3.960000000    -0.0016860   -0.0026155     0.0000261   -0.0000028    -0.0000167   -0.0000230     0.9914451   -0.1241457 
   4.000000000    -0.0018320   -0.0023749    -0.0000228    0.0000259     0.0000197    0.0000570     0.9902672   -0.1252905 
   4.040000000    -0.0020639   -0.0022749    -0.0000114    0.0000114    -0.0000045   -0.0000003     0.9909949   -0.1255279 
   4.080000000    -0.0021515   -0.0022427    -0.0000205    0.0000233     0.0000009    0.0000161     0.9913570   -0.1273865 
   4.120000000    -0.0020425   -0.0019726     0.0000253    0.0000021    -0.0000204    0.0000220     0.9906299   -0.1282910 
   4.160000000    -0.0020747   -0.0017760    -0.0000072   -0.0000026     0.0000345   -0.0000124     0.9896801   -0.1295338 
   4.200000000    -0.0023608   -0.0014807    -0.0000123   -0.0000084    -0.0000014    0.0000128     0.9910196   -0.1311905 
   4.240000000    -0.0024573   -0.0013143    -0.0000510    0.0000189     0.0000213    0.0000361     0.9907560   -0.1331307 
   4.280000000    -0.0024436   -0.0012451    -0.0000208    0.0000082     0.0000254   -0.0000189     0.9905584   -0.1336873 
   4.320000000    -0.0023937   -0.0010307    -0.0000307    0.0000048     0.0000094   -0.0000120     0.9900394   -0.1343882 
   4.360000000    -0.0024072   -0.0007061     0.0000009   -0.0000212     0.0000192    0.0000271     0.9898726   -0.1363407 
   4.400000000    -0.0025808   -0.0004911     0.0000125    0.0000067     0.0000272    0.0000147     0.9897998   -0.1378837 
   4.440000000    -0.0027311   -0.0003673    -0.0000051   -0.0000007    -0.0000060   -0.0000063     0.9899318   -0.1383120 
   4.480000000    -0.0027108   -0.0003724     0.0000001   -0.0000322    -0.0000013    0.0000209     0.9900514   -0.1385382 
   4.520000000    -0.0025784   -0.0001307    -0.0000078    0.0000082     0.0000330   -0.0000142     0.9894871   -0.1394435 
   4.560000000    -0.0025630    0.0002242    -0.0000070   -0.0000138     0.0000057   -0.0000090     0.9891954   -0.1410079 
   4.600000000    -0.0026386    0.0004752    -0.0000182   -0.0000058    -0.0000187   -0.0000253     0.9894352   -0.1423839 
   4.640000000    -0.0027691    0.0005858    -0.0000303    0.0000128     0.0000145   -0.0000470     0.9889728   -0.1425376 
   4.680000000    -0.0027787    0.0007004    -0.0000255   -0.0000040    -0.0000024   -0.0000404     0.9899396   -0.1452432 
   4.720000000    -0.0026596    0.0008408    -0.0000157    0.0000171    -0.0000217    0.0000211     0.9889455   -0.1459380 
   4.760000000    -0.0026071    0.0011433    -0.0000147    0.0000218    -0.0000010    0.0000163     0.9879379   -0.1477241 
   4.800000000    -0.0026202    0.0015054     0.0000010   -0.0000356     0.0000125   -0.0000209     0.9883717   -0.1484080 
   4.840000000    -0.0027999    0.0015648    -0.0000077   -0.0000009    -0.0000328   -0.0000086     0.9885485   -0.1500893 
   4.880000000    -0.0028009    0.0015881     0.0000081    0.0000064     0.0000139   -0.0000033     0.9885358   -0.1517529 
   4.920000000    -0.0025586    0.0016782    -0.0000223    0.0000300    -0.0000004   -0.0000044     0.9877713   -0.1519453 
   4.960000000    -0.0023391    0.0021113    -0.0000229   -0.0000257    -0.0000188   -0.0000112     0.9881246   -0.1534657 
   5.000000000    -0.0024670    0.0023038     0.0000162   -0.0000281     0.0000190    0.0000256     0.9881192   -0.1538920 
   5.040000000    -0.0028198    0.0025737    -0.0000183   -0.0000319    -0.0000075    0.0000694     0.9873332   -0.1552944 
   5.080000000    -0.0026632    0.0024327    -0.0000314    0.0000349     0.0000699   -0.0000251     0.9866816   -0.1578027 
   5.120000000    -0.0023118    0.0025219     0.0000112    0.0000149     0.0000200   -0.0000257     0.9869214   -0.1582669 
   5.160000000    -0.0019999    0.0028044     0.0000155    0.0000271    -0.0000214    0.0000612     0.9869322   -0.1602252 
   5.200000000    -0.0021978    0.0032399     0.0000105   -0.0000484    -0.0000740    0.0000139     0.9863708   -0.1610463 
   5.240000000    -0.0022934    0.0033679     0.0000091    0.0000098    -0.0000250   -0.0000381     0.9857307   -0.1620059 
   5.280000000    -0.0022268    0.0032186    -0.0000087   -0.0000031    -0.0000340    0.0000036     0.9859341   -0.1638237 
   5.320000000    -0.0020382    0.0033040     0.0000021   -0.0000041     0.0000794    0.0000332     0.9860734   -0.1661953 
   5.360000000    -0.0018069    0.0036266    -0.0000049    0.0000356     0.0000358    0.0000301     0.9855503   -0.1664750 
   5.400000000    -0.0017448    0.0039212    -0.0000050    0.0000383     0.0000410    0.0000143     0.9853328   -0.1674432 
   5.440000000    -0.0018771    0.0041183     0.0000009    0.0000014     0.0000330   -0.0000214     0.9848191   -0.1691947 
   5.480000000    -0.0017936    0.0038912    -0.0000484   -0.0000142    -0.0000250   -0.0000442     0.9849042   -0.1710698 
   5.520000000    -0.0015347    0.0041693     0.0000375    0.0000121     0.0000254   -0.0000135     0.9854290   -0.1724012 
   5.560000000    -0.0013362    0.0042622    -0.0000038    0.0000440     0.0000056   -0.0000003     0.9842016   -0.1732477 
   5.600000000    -0.0013329    0.0044681    -0.0000110    0.0000073     0.0000610    0.0000419     0.9839684   -0.1748821 
   5.640000000    -0.0012169    0.0045151    -0.0000049   -0.0000473    -0.0000139   -0.0000268     0.9837312   -0.1773400 
   5.680000000    -0.0011634    0.0044215    -0.0000019   -0.0000072    -0.0000404    0.0000147     0.9839028   -0.1783879 
   5.720000000    -0.0008335    0.0045449     0.0000012    0.0000250     0.0000046   -0.0000149     0.9839640   -0.1793061 
   5.760000000    -0.0007374    0.0048514     0.0000100   -0.0000152     0.0000260    0.0000135     0.9833689   -0.1806190 
   5.800000000    -0.0006826    0.0049996     0.0000079    0.0000152     0.0000014   -0.0000519     0.9823791   -0.1826094 
   5.840000000    -0.0006851    0.0050532    -0.0000005   -0.0000201    -0.0000157    0.0000352     0.9827577   -0.1845265 
   5.880000000    -0.0005575    0.0049289     0.0000072    0.0000216    -0.0000181    0.0000245     0.9823181   -0.1857849 
   5.920000000    -0.0001644    0.0049921     0.0000367   -0.0000511     0.0000130   -0.0000682     0.9828599   -0.1866896 
   5.960000000     0.0000027    0.0051769     0.0000515   -0.0000385    -0.0000039   -0.0000249     0.9810540   -0.1885438 
   6.000000000    -0.0000196    0.0053804     0.0000085   -0.0000324    -0.0000224   -0.0000062     0.9811023   -0.1900422 
   6.040000000     0.0000260    0.0053165     0.0000050    0.0000242     0.0000241    0.0000169     0.9812420   -0.1911047 
   6.080000000     0.0002482    0.0052093    -0.0000048    0.0000292    -0.0000243    0.0000172     0.9815458   -0.1928197 
   6.120000000     0.0004944    0.0052470    -0.0000182   -0.0000226     0.0000035    0.0000200     0.9800177   -0.1950274 
   6.160000000     0.0007464    0.0054283     0.0000080    0.0000208    -0.0000216    0.0000172     0.9797074   -0.1964686 
   6.200000000     0.0007861    0.0055855    -0.0000038    0.0000263     0.0000170    0.0000248     0.9797610   -0.1979102 
   6.240000000     0.0007220    0.0055132     0.0000186   -0.0000263    -0.0000032   -0.0000018     0.9798916   -0.1998326 
   6.280000000     0.0009218    0.0052926    -0.0000211    0.0000359     0.0000306   -0.0000095     0.9795164   -0.2006430 
