! 12/6/2023 2:03:20 PM
! D:\MS4647AVNA\292M185M 231205XX\23120537.S2P
! CHANNEL.1
! TR.MEASUREMENT
! CORRECTED.DATA
# GHZ S RI R 50.0
! FREQ.GHZ         S11RE         S11IM         S21RE         S21IM         S12RE         S12IM         S22RE         S22IM         
!; PortSelection: Port_12
   0.040000000     0.0017616    0.0004088     0.0000188    0.0000011    -0.0000057   -0.0000006     1.0012110   -0.0007723 
   0.080000000     0.0020571    0.0002667     0.0000073    0.0000045    -0.0000161    0.0000020     1.0001360   -0.0007423 
   0.120000000     0.0023401    0.0004002    -0.0000185    0.0000027     0.0000109    0.0000035     1.0009500    0.0002950 
   0.160000000     0.0022171    0.0003851     0.0000097   -0.0000187    -0.0000049    0.0000036     1.0004680   -0.0015505 
   0.200000000     0.0023695   -0.0000810     0.0000040    0.0000035     0.0000150   -0.0000013     1.0000460   -0.0018666 
   0.240000000     0.0027717    0.0000806     0.0000153   -0.0000156     0.0000215   -0.0000168     1.0002520   -0.0005454 
   0.280000000     0.0023940    0.0003489    -0.0000130    0.0000191     0.0000219   -0.0000065     1.0010070   -0.0001224 
   0.320000000     0.0022682   -0.0003034     0.0000145   -0.0000052     0.0000242    0.0000077     1.0003730   -0.0013304 
   0.360000000     0.0029447   -0.0005944    -0.0000067    0.0000081    -0.0000008   -0.0000001     1.0003910   -0.0011240 
   0.400000000     0.0028778    0.0000568     0.0000015   -0.0000125    -0.0000219    0.0000001     1.0009420   -0.0005758 
   0.440000000     0.0024594   -0.0003948    -0.0000272    0.0000014    -0.0000154    0.0000109     1.0003960   -0.0021088 
   0.480000000     0.0028297   -0.0009040     0.0000148   -0.0000086    -0.0000052   -0.0000035     1.0002470   -0.0020675 
   0.520000000     0.0031155   -0.0008915     0.0000174   -0.0000136     0.0000519    0.0000274     1.0013380   -0.0007754 
   0.560000000     0.0029952   -0.0005679    -0.0000602    0.0000021    -0.0000326   -0.0000456     1.0016670   -0.0015036 
   0.600000000     0.0024150   -0.0011042     0.0000231    0.0000341     0.0000094    0.0000094     1.0007140   -0.0025288 
   0.640000000     0.0034546   -0.0017875    -0.0000139    0.0000109    -0.0000132    0.0000249     1.0010150   -0.0011575 
   0.680000000     0.0034471   -0.0001952    -0.0000309   -0.0000176    -0.0000154   -0.0000095     1.0020350   -0.0000708 
   0.720000000     0.0015036   -0.0008920     0.0000273   -0.0000086    -0.0000204   -0.0000033     1.0000490   -0.0021849 
   0.760000000     0.0026934   -0.0025882     0.0000147    0.0000318    -0.0000064   -0.0000134     1.0008900   -0.0020671 
   0.800000000     0.0038059   -0.0011270     0.0000021    0.0000028     0.0000531    0.0000008     1.0012740   -0.0004049 
   0.840000000     0.0018550   -0.0007832    -0.0000098    0.0000030     0.0000029    0.0000191     0.9995781   -0.0022023 
   0.880000000     0.0019809   -0.0026732    -0.0000056   -0.0000206     0.0000204   -0.0000115     1.0000580   -0.0033327 
   0.920000000     0.0034751   -0.0022012    -0.0000279   -0.0000215     0.0000276   -0.0000259     1.0007750   -0.0010514 
   0.960000000     0.0024209   -0.0009787     0.0000194   -0.0000278    -0.0000172    0.0000170     0.9992438   -0.0012353 
   1.000000000     0.0013454   -0.0026156    -0.0000067   -0.0000296    -0.0000166    0.0000105     0.9997209   -0.0039983 
   1.040000000     0.0030887   -0.0031758    -0.0000205    0.0000021     0.0000054   -0.0000225     1.0008720   -0.0022259 
   1.080000000     0.0027644   -0.0013574    -0.0000165   -0.0000171    -0.0000139    0.0000103     0.9998526   -0.0014065 
   1.120000000     0.0010223   -0.0020891    -0.0000010    0.0000278     0.0000140    0.0000269     0.9991481   -0.0040703 
   1.160000000     0.0019854   -0.0037526     0.0000001   -0.0000194     0.0000161    0.0000157     1.0007750   -0.0042260 
   1.200000000     0.0031030   -0.0024909     0.0000047    0.0000300    -0.0000233    0.0000121     1.0003000   -0.0017791 
   1.240000000     0.0015080   -0.0016874     0.0000438   -0.0000169    -0.0000213    0.0000119     0.9990687   -0.0033293 
   1.280000000     0.0007277   -0.0035555    -0.0000102   -0.0000099    -0.0000092   -0.0000308     0.9991460   -0.0044541 
   1.320000000     0.0022741   -0.0038949    -0.0000018    0.0000063     0.0000023   -0.0000018     1.0000100   -0.0028947 
   1.360000000     0.0022726   -0.0024752     0.0000349   -0.0000152     0.0000268   -0.0000465     0.9996234   -0.0029243 
   1.400000000     0.0007463   -0.0026779     0.0000332   -0.0000250    -0.0000141    0.0000084     0.9990218   -0.0040640 
   1.440000000     0.0009465   -0.0038888     0.0000511   -0.0000138    -0.0000077    0.0000052     0.9994312   -0.0039526 
   1.480000000     0.0017990   -0.0033525     0.0000010   -0.0000159    -0.0000141   -0.0000042     0.9994138   -0.0027140 
   1.520000000     0.0008876   -0.0027982    -0.0000224    0.0000116     0.0000111   -0.0000041     0.9989485   -0.0035665 
   1.560000000     0.0004441   -0.0037607     0.0000131   -0.0000078    -0.0000049    0.0000070     0.9988602   -0.0051736 
   1.600000000     0.0012620   -0.0037521     0.0000075   -0.0000079    -0.0000055    0.0000091     0.9990001   -0.0034828 
   1.640000000     0.0007362   -0.0029284     0.0000368   -0.0000474     0.0000311    0.0000127     0.9987065   -0.0035354 
   1.680000000    -0.0000796   -0.0036236    -0.0000076    0.0000078     0.0000013   -0.0000093     0.9984081   -0.0045963 
   1.720000000     0.0007030   -0.0040348     0.0000121    0.0000148     0.0000085    0.0000052     0.9992112   -0.0037580 
   1.760000000     0.0004422   -0.0030333     0.0000299   -0.0000039    -0.0000182    0.0000382     0.9991577   -0.0036388 
   1.800000000    -0.0006694   -0.0036429    -0.0000307   -0.0000295    -0.0000107   -0.0000307     0.9983928   -0.0046827 
   1.840000000     0.0001826   -0.0044422     0.0000072    0.0000343    -0.0000243    0.0000145     0.9986577   -0.0054223 
   1.880000000     0.0004280   -0.0030399     0.0000167   -0.0000404     0.0000187   -0.0000028     0.9982076   -0.0037785 
   1.920000000    -0.0011009   -0.0033330    -0.0000269    0.0000404    -0.0000414   -0.0000135     0.9986998   -0.0051167 
   1.960000000    -0.0003311   -0.0046022     0.0000126    0.0000179     0.0000067    0.0000062     0.9995130   -0.0048725 
   2.000000000     0.0011372   -0.0028624     0.0000312   -0.0000424    -0.0000188   -0.0000476     0.9992785   -0.0053573 
   2.040000000    -0.0012535   -0.0028863     0.0000913   -0.0000121     0.0000278   -0.0000067     0.9993939   -0.0071818 
   2.080000000    -0.0010200   -0.0053471    -0.0000597    0.0000375     0.0000491    0.0000304     1.0008420   -0.0081573 
   2.120000000     0.0007990   -0.0041647    -0.0000225   -0.0000288     0.0000484   -0.0000246     0.9990176   -0.0072048 
   2.160000000    -0.0013480   -0.0030607     0.0000545   -0.0000085    -0.0000032   -0.0000297     0.9994740   -0.0096444 
   2.200000000    -0.0019200   -0.0054990    -0.0000404    0.0000315    -0.0000117    0.0000116     1.0006680   -0.0087454 
   2.240000000     0.0005774   -0.0053717    -0.0000315   -0.0000264     0.0000254    0.0000377     0.9982356   -0.0064210 
   2.280000000    -0.0002299   -0.0031507     0.0000030   -0.0000144     0.0000514    0.0000714     0.9986582   -0.0083756 
   2.320000000    -0.0018200   -0.0050112     0.0000402   -0.0000395     0.0000588    0.0000650     1.0037190   -0.0068804 
   2.360000000     0.0018311   -0.0055359     0.0000144   -0.0000103    -0.0000587    0.0000347     1.0018060   -0.0047924 
   2.400000000     0.0018011   -0.0003697    -0.0000532    0.0000187     0.0000403   -0.0000154     0.9981474   -0.0075982 
   2.440000000    -0.0033927   -0.0014091     0.0000146    0.0000174    -0.0000312    0.0000521     1.0026980   -0.0105050 
   2.480000000    -0.0010740   -0.0068209     0.0000215    0.0000105    -0.0000087   -0.0001023     1.0040320   -0.0046057 
   2.520000000     0.0001286   -0.0034666    -0.0000361   -0.0000124    -0.0000640    0.0000197     0.9977214   -0.0123847 
   2.560000000     0.0001213   -0.0027849     0.0000249    0.0000503     0.0000129   -0.0000207     0.9975142   -0.0112653 
   2.600000000    -0.0002205   -0.0030058    -0.0000040    0.0000037     0.0000056   -0.0000267     0.9991043   -0.0127926 
   2.640000000     0.0001953   -0.0032552     0.0000452    0.0000133     0.0000591   -0.0000098     0.9977077   -0.0126738 
   2.680000000     0.0005026   -0.0029092     0.0000377   -0.0000085    -0.0000122    0.0000176     0.9979274   -0.0120876 
   2.720000000    -0.0001241   -0.0026531    -0.0000303   -0.0000288    -0.0000203   -0.0000289     0.9980441   -0.0126999 
   2.760000000    -0.0000843   -0.0030932    -0.0000822   -0.0000649    -0.0000411    0.0000599     0.9986227   -0.0136903 
   2.800000000     0.0002123   -0.0031625     0.0000218    0.0000175    -0.0000296   -0.0000029     0.9983158   -0.0134915 
   2.840000000    -0.0002172   -0.0029072    -0.0000172   -0.0000444     0.0000160   -0.0000406     0.9990644   -0.0133538 
   2.880000000    -0.0003215   -0.0030857     0.0000295    0.0000016    -0.0000069   -0.0000542     0.9989274   -0.0151113 
   2.920000000    -0.0002673   -0.0030607     0.0000311    0.0000153    -0.0000262    0.0000224     0.9983082   -0.0148570 
   2.960000000    -0.0003723   -0.0032330     0.0000124   -0.0000537    -0.0000429   -0.0000154     0.9980351   -0.0153105 
   3.000000000    -0.0004417   -0.0032951     0.0000155   -0.0000073    -0.0000509   -0.0000293     0.9984781   -0.0158293 
   3.040000000    -0.0005867   -0.0029704    -0.0000370    0.0000443    -0.0000173    0.0000059     0.9983665   -0.0165681 
   3.080000000    -0.0007485   -0.0031466    -0.0000147    0.0000202     0.0000251    0.0000529     0.9974270   -0.0161905 
   3.120000000    -0.0004435   -0.0034369    -0.0000096   -0.0000061    -0.0000040    0.0000174     0.9976456   -0.0159552 
   3.160000000    -0.0005237   -0.0032122    -0.0000038    0.0000061    -0.0000369    0.0000256     0.9977690   -0.0171060 
   3.200000000    -0.0008877   -0.0028864     0.0000161    0.0000176    -0.0000043   -0.0000017     0.9972135   -0.0172564 
   3.240000000    -0.0009545   -0.0032466    -0.0000072    0.0000028    -0.0000420   -0.0000217     0.9960761   -0.0163976 
   3.280000000    -0.0006491   -0.0034577     0.0000133    0.0000209    -0.0000052    0.0000167     0.9963316   -0.0174084 
   3.320000000    -0.0005887   -0.0030104     0.0000020    0.0000252    -0.0000057    0.0000289     0.9967205   -0.0185706 
   3.360000000    -0.0013016   -0.0029856    -0.0000245   -0.0000707    -0.0000396   -0.0000069     0.9964997   -0.0174092 
   3.400000000    -0.0011650   -0.0034176     0.0000133   -0.0000041     0.0000018    0.0000283     0.9973050   -0.0168062 
   3.440000000    -0.0007318   -0.0032198    -0.0000153    0.0000033    -0.0000070   -0.0000025     0.9969252   -0.0182389 
   3.480000000    -0.0011936   -0.0026287     0.0000061   -0.0000022     0.0000018   -0.0000031     0.9966785   -0.0191779 
   3.520000000    -0.0016201   -0.0030352    -0.0000290   -0.0000232    -0.0000104    0.0000262     0.9967927   -0.0170390 
   3.560000000    -0.0013312   -0.0033569     0.0000045   -0.0000040     0.0000106    0.0000030     0.9973533   -0.0185602 
   3.600000000    -0.0010457   -0.0027309     0.0000093    0.0000329     0.0000202   -0.0000443     0.9967543   -0.0182914 
   3.640000000    -0.0015975   -0.0025230    -0.0000177   -0.0000013     0.0000319   -0.0000463     0.9971766   -0.0187306 
   3.680000000    -0.0018585   -0.0029034     0.0000249   -0.0000071     0.0000232    0.0000238     0.9973173   -0.0188130 
   3.720000000    -0.0015696   -0.0029434     0.0000121   -0.0000402     0.0000097    0.0000582     0.9964941   -0.0190616 
   3.760000000    -0.0016587   -0.0024582     0.0000284    0.0000034     0.0000030    0.0000080     0.9963215   -0.0195516 
   3.800000000    -0.0020920   -0.0024221     0.0000055   -0.0000096     0.0000365    0.0000169     0.9973700   -0.0192033 
   3.840000000    -0.0021402   -0.0027655     0.0000162   -0.0000006    -0.0000705    0.0000148     0.9971994   -0.0205336 
   3.880000000    -0.0019889   -0.0026395    -0.0000322    0.0000036     0.0000087    0.0000185     0.9956224   -0.0205769 
   3.920000000    -0.0020560   -0.0023643    -0.0000260    0.0000188    -0.0000339    0.0000056     0.9973763   -0.0202109 
   3.960000000    -0.0024264   -0.0024376    -0.0000080   -0.0000217     0.0000084    0.0000183     0.9974292   -0.0206965 
   4.000000000    -0.0023954   -0.0026118     0.0000072    0.0000130    -0.0000417    0.0000038     0.9967496   -0.0211517 
   4.040000000    -0.0022270   -0.0024720    -0.0000035   -0.0000159     0.0000104   -0.0000327     0.9957059   -0.0210951 
   4.080000000    -0.0023123   -0.0023423    -0.0000261   -0.0000108    -0.0000641    0.0000035     0.9969906   -0.0214538 
   4.120000000    -0.0024596   -0.0023303     0.0000185   -0.0000013    -0.0000780   -0.0000065     0.9966732   -0.0216899 
   4.160000000    -0.0024593   -0.0024905     0.0000020    0.0000081    -0.0000102   -0.0000264     0.9956346   -0.0212571 
   4.200000000    -0.0024011   -0.0024613    -0.0000266    0.0000308     0.0000217   -0.0000272     0.9955136   -0.0213696 
   4.240000000    -0.0023611   -0.0024343     0.0000306   -0.0000223    -0.0000362    0.0000148     0.9961665   -0.0227118 
   4.280000000    -0.0025415   -0.0024411    -0.0000100   -0.0000007    -0.0000016    0.0000112     0.9959682   -0.0219407 
   4.320000000    -0.0025690   -0.0025527    -0.0000255    0.0000315     0.0000231   -0.0000319     0.9961708   -0.0211376 
   4.360000000    -0.0025711   -0.0026968     0.0000143   -0.0000273     0.0000143    0.0000227     0.9964496   -0.0226477 
   4.400000000    -0.0027148   -0.0026063     0.0000121   -0.0000163    -0.0000351   -0.0000152     0.9959077   -0.0237418 
   4.440000000    -0.0028461   -0.0026041     0.0000007   -0.0000439     0.0000111    0.0000333     0.9958370   -0.0215759 
   4.480000000    -0.0029544   -0.0027071     0.0000090   -0.0000164     0.0000298   -0.0000133     0.9956182   -0.0232770 
   4.520000000    -0.0029805   -0.0026962     0.0000100   -0.0000196     0.0000338   -0.0000369     0.9959152   -0.0237563 
   4.560000000    -0.0029993   -0.0026554     0.0000195    0.0000127     0.0000099   -0.0000343     0.9959019   -0.0241955 
   4.600000000    -0.0032926   -0.0024271     0.0000207   -0.0000542     0.0000213   -0.0000011     0.9957315   -0.0229581 
   4.640000000    -0.0033946   -0.0025269    -0.0000102    0.0000068    -0.0000243    0.0000084     0.9960206   -0.0250810 
   4.680000000    -0.0033925   -0.0024764    -0.0000024   -0.0000154    -0.0000103    0.0000550     0.9950557   -0.0246424 
   4.720000000    -0.0033871   -0.0023064    -0.0000100   -0.0000058     0.0000069   -0.0000024     0.9959753   -0.0246868 
   4.760000000    -0.0036921   -0.0020473    -0.0000356   -0.0000213    -0.0000223   -0.0000118     0.9951810   -0.0242384 
   4.800000000    -0.0038448   -0.0021939    -0.0000417   -0.0000232     0.0000255   -0.0000068     0.9953076   -0.0248214 
   4.840000000    -0.0036074   -0.0021868     0.0000311    0.0000057     0.0000210    0.0000101     0.9948948   -0.0247277 
   4.880000000    -0.0036777   -0.0017020    -0.0000096    0.0000214    -0.0000480   -0.0000157     0.9951291   -0.0247048 
   4.920000000    -0.0040684   -0.0015406    -0.0000025    0.0000207    -0.0000254    0.0000117     0.9949750   -0.0255356 
   4.960000000    -0.0041741   -0.0015905     0.0000288    0.0000197     0.0000252    0.0000054     0.9944588   -0.0252768 
   5.000000000    -0.0039436   -0.0014061    -0.0000054    0.0000077    -0.0000236   -0.0000510     0.9949889   -0.0260295 
   5.040000000    -0.0038382   -0.0008078     0.0000171   -0.0000144     0.0000639    0.0000673     0.9955120   -0.0254564 
   5.080000000    -0.0043130   -0.0006109     0.0000421   -0.0000241     0.0000159   -0.0000276     0.9944873   -0.0251981 
   5.120000000    -0.0041901   -0.0006906    -0.0000184   -0.0000235    -0.0000095    0.0000128     0.9951044   -0.0253092 
   5.160000000    -0.0036566   -0.0004220     0.0000116   -0.0000117     0.0000426    0.0000120     0.9957474   -0.0269745 
   5.200000000    -0.0038613    0.0002081    -0.0000580   -0.0000030     0.0000190   -0.0000403     0.9950836   -0.0259578 
   5.240000000    -0.0041368    0.0003920     0.0000018   -0.0000092     0.0000101    0.0000301     0.9953296   -0.0263443 
   5.280000000    -0.0037668    0.0001538     0.0000339   -0.0000161    -0.0000551    0.0000024     0.9949034   -0.0268500 
   5.320000000    -0.0033340    0.0005759    -0.0000123    0.0000063    -0.0000100    0.0000596     0.9955443   -0.0273810 
   5.360000000    -0.0034300    0.0011335     0.0000020   -0.0000052     0.0000392    0.0000038     0.9953517   -0.0278193 
   5.400000000    -0.0036089    0.0009989     0.0000351    0.0000448     0.0000019    0.0000208     0.9947340   -0.0273442 
   5.440000000    -0.0031913    0.0006858     0.0000335    0.0000116    -0.0000201   -0.0000434     0.9955936   -0.0284742 
   5.480000000    -0.0027718    0.0010642    -0.0000134   -0.0000136     0.0000029   -0.0000252     0.9946337   -0.0286644 
   5.520000000    -0.0031149    0.0013643     0.0000166    0.0000356     0.0000256   -0.0000019     0.9949461   -0.0281439 
   5.560000000    -0.0031718    0.0010068     0.0000560    0.0000375    -0.0000060    0.0000187     0.9942181   -0.0296516 
   5.600000000    -0.0027154    0.0008792     0.0000050   -0.0000095    -0.0000330   -0.0000006     0.9941530   -0.0301537 
   5.640000000    -0.0025152    0.0013078     0.0000256    0.0000151     0.0000357   -0.0000085     0.9942472   -0.0301137 
   5.680000000    -0.0028727    0.0012048    -0.0000139    0.0000203     0.0000427    0.0000281     0.9939262   -0.0298412 
   5.720000000    -0.0028287    0.0008584    -0.0000440   -0.0000697    -0.0000184    0.0000526     0.9940464   -0.0302700 
   5.760000000    -0.0024028    0.0008631     0.0000173    0.0000275     0.0000249    0.0000452     0.9936662   -0.0313294 
   5.800000000    -0.0024330    0.0011484    -0.0000427   -0.0000038     0.0000154    0.0000262     0.9950117   -0.0314674 
   5.840000000    -0.0028615    0.0009934     0.0000437    0.0000109     0.0000013   -0.0000134     0.9947574   -0.0315406 
   5.880000000    -0.0027812    0.0007049     0.0000143   -0.0000016    -0.0000139    0.0000280     0.9938653   -0.0322361 
   5.920000000    -0.0024940    0.0007057     0.0000092   -0.0000110    -0.0000112    0.0000464     0.9935656   -0.0331086 
   5.960000000    -0.0024591    0.0009737    -0.0000015    0.0000287    -0.0000017    0.0000197     0.9946955   -0.0328458 
   6.000000000    -0.0029516    0.0008165     0.0000452    0.0000018    -0.0000053    0.0000191     0.9941318   -0.0334234 
   6.040000000    -0.0027471    0.0005142     0.0000034    0.0000156    -0.0000433   -0.0000032     0.9930683   -0.0336572 
   6.080000000    -0.0025707    0.0005879     0.0000116   -0.0000050    -0.0000301   -0.0000318     0.9941615   -0.0348442 
   6.120000000    -0.0027308    0.0008602     0.0000118   -0.0000145     0.0000000   -0.0000018     0.9940000   -0.0337980 
   6.160000000    -0.0030455    0.0006462     0.0000116    0.0000096    -0.0000170   -0.0000065     0.9931269   -0.0336970 
   6.200000000    -0.0029485    0.0004279     0.0000196    0.0000205    -0.0000019   -0.0000239     0.9930748   -0.0347914 
   6.240000000    -0.0027260    0.0004381    -0.0000183    0.0000191     0.0000096   -0.0000129     0.9943634   -0.0356905 
   6.280000000    -0.0030389    0.0006328     0.0000050    0.0000158     0.0000070    0.0000087     0.9937464   -0.0353623 
