!	Serial No:	U00162								
!	Date:	6/1/2018								
!	Model:	DXM30BF								
!	Wavelength:	1560nm								
#	GHZ	S	MA	R	50					
!	FREQ.GHZ	S11M	S11A	S21M	S21A	S12M	S12A	S22M	S22A	
0	0	0	1	0	0	0	0	0		
0.5	0	0	0.997294859	-27.68902188	0	0	0	0		
1	0	0	0.99032542	-55.21403019	0	0	0	0		
1.5	0	0	0.981740689	-82.50289351	0	0	0	0		
2	0	0	0.973938418	-109.6024701	0	0	0	0		
2.5	0	0	0.967733476	-136.6207328	0	0	0	0		
3	0	0	0.962449892	-163.6358185	0	0	0	0		
3.5	0	0	0.957112597	169.3468265	0	0	0	0		
4	0	0	0.951483126	142.3623993	0	0	0	0		
4.5	0	0	0.946057691	115.4268623	0	0	0	0		
5	0	0	0.941276115	88.51293273	0	0	0	0		
5.5	0	0	0.936903402	61.58020187	0	0	0	0		
6	0	0	0.932225953	34.62025715	0	0	0	0		
6.5	0	0	0.926781164	7.666494892	0	0	0	0		
7	0	0	0.920819829	-19.23960102	0	0	0	0		
7.5	0	0	0.915054253	-46.08934715	0	0	0	0		
8	0	0	0.909992416	-72.91516468	0	0	0	0		
8.5	0	0	0.90551945	-99.76170829	0	0	0	0		
9	0	0	0.901056886	-126.6510308	0	0	0	0		
9.5	0	0	0.896033517	-153.572611	0	0	0	0		
10	0	0	0.890195702	179.5017853	0	0	0	0		
10.5	0	0	0.883595414	152.6005185	0	0	0	0		
11	0	0	0.876461223	125.7461795	0	0	0	0		
11.5	0	0	0.869162541	98.95516698	0	0	0	0		
12	0	0	0.862205747	72.23096206	0	0	0	0		
12.5	0	0	0.856070052	45.55459541	0	0	0	0		
13	0	0	0.850909428	18.88927198	0	0	0	0		
13.5	0	0	0.846432584	-7.795145446	0	0	0	0		
14	0	0	0.842191732	-34.4986996	0	0	0	0		
14.5	0	0	0.83806591	-61.19678243	0	0	0	0		
15	0	0	0.834425279	-87.87469526	0	0	0	0		
15.5	0	0	0.831720775	-114.5570374	0	0	0	0		
16	0	0	0.829859001	-141.2959952	0	0	0	0		
16.5	0	0	0.828037634	-168.1230804	0	0	0	0		
17	0	0	0.825307712	164.9887561	0	0	0	0		
17.5	0	0	0.821378054	138.1120012	0	0	0	0		
18	0	0	0.816895353	111.3093177	0	0	0	0		
18.5	0	0	0.812920563	84.58578421	0	0	0	0		
19	0	0	0.81009687	57.89246573	0	0	0	0		
19.5	0	0	0.808300753	31.1755579	0	0	0	0		
20	0	0	0.807048415	4.419070368	0	0	0	0		
20.5	0	0	0.806136653	-22.3604473	0	0	0	0		
21	0	0	0.805814052	-49.15312889	0	0	0	0		
21.5	0	0	0.806371207	-75.9798923	0	0	0	0		
22	0	0	0.807704763	-102.8746638	0	0	0	0		
22.5	0	0	0.809399177	-129.8498237	0	0	0	0		
23	0	0	0.811210822	-156.8898914	0	0	0	0		
23.5	0	0	0.813328066	176.0177145	0	0	0	0		
24	0	0	0.8160418	148.8536852	0	0	0	0		
24.5	0	0	0.819201929	121.5797535	0	0	0	0		
25	0	0	0.82217767	94.18362597	0	0	0	0		
25.5	0	0	0.824509002	66.70170263	0	0	0	0		
26	0	0	0.826586132	39.18308359	0	0	0	0		
26.5	0	0	0.829508646	11.62201377	0	0	0	0		
27	0	0	0.834046064	-16.07125706	0	0	0	0		
27.5	0	0	0.839622264	-44.01946649	0	0	0	0		
28	0	0	0.84436621	-72.28852664	0	0	0	0		
28.5	0	0	0.846229836	-100.8452525	0	0	0	0		
29	0	0	0.844093141	-129.5975716	0	0	0	0		
29.5	0	0	0.837844271	-158.4691628	0	0	0	0		
30	0	0	0.827503831	172.5680215	0	0	0	0		
30.5	0	0	0.812469141	143.5367565	0	0	0	0		
31	0	0	0.791882812	114.529263	0	0	0	0		
31.5	0	0	0.76595955	85.72871699	0	0	0	0		
32	0	0	0.736961654	57.32910263	0	0	0	0		
32.5	0	0	0.708532542	29.39166833	0	0	0	0		
33	0	0	0.68344514	1.764087752	0	0	0	0		
33.5	0	0	0.661616874	-25.81169203	0	0	0	0		
34	0	0	0.640562851	-53.4570851	0	0	0	0		
34.5	0	0	0.618223676	-81.02092475	0	0	0	0		
35	0	0	0.595603114	-108.210598	0	0	0	0		
35.5	0	0	0.576616352	-134.9139055	0	0	0	0		
36	0	0	0.564789409	-161.4378724	0	0	0	0		
36.5	0	0	0.559563128	171.6486908	0	0	0	0		
37	0	0	0.556109474	143.9910641	0	0	0	0		
37.5	0	0	0.549066382	115.729025	0	0	0	0		
38	0	0	0.536526148	87.33643237	0	0	0	0		
38.5	0	0	0.520993491	59.22906871	0	0	0	0		
39	0	0	0.506802872	31.42526144	0	0	0	0		
39.5	0	0	0.496045422	3.520971404	0	0	0	0		
40	0	0	0.486581513	-24.93450537	0	0	0	0		