! 3/27/2024 10:51:03 AM
! D:\MS4647AVNA\292M185F 240225XX\24022513.S2P
! CHANNEL.1
! TR.MEASUREMENT
! CORRECTED.DATA
# GHZ S RI R 50.0
! FREQ.GHZ         S11RE         S11IM         S21RE         S21IM         S12RE         S12IM         S22RE         S22IM         
!; PortSelection: Port_12
   0.040000000     0.0033443    0.0010955     0.0000069   -0.0000086    -0.0000116    0.0000218     1.0020380   -0.0025587 
   0.080000000     0.0039655    0.0005273     0.0000004    0.0000048     0.0000053   -0.0000015     1.0008210   -0.0031203 
   0.120000000     0.0046501    0.0001124     0.0000127   -0.0000013     0.0000250   -0.0000163     1.0010600   -0.0057143 
   0.160000000     0.0047962   -0.0000407     0.0000014   -0.0000185    -0.0000005    0.0000081     1.0002760   -0.0059638 
   0.200000000     0.0047701   -0.0006185     0.0000157    0.0000162    -0.0000152   -0.0000307     1.0001170   -0.0077244 
   0.240000000     0.0051890   -0.0010323     0.0000174   -0.0000052     0.0000032   -0.0000131     1.0004340   -0.0087742 
   0.280000000     0.0051537   -0.0009337     0.0000128    0.0000181     0.0000173    0.0000015     1.0003490   -0.0096163 
   0.320000000     0.0047542   -0.0015345     0.0000063   -0.0000035    -0.0000018   -0.0000143     1.0003650   -0.0112606 
   0.360000000     0.0052087   -0.0023529    -0.0000074   -0.0000134     0.0000085   -0.0000045     1.0001260   -0.0130001 
   0.400000000     0.0054678   -0.0021745    -0.0000086   -0.0000068     0.0000152    0.0000101     1.0006680   -0.0140986 
   0.440000000     0.0050378   -0.0024542     0.0000038    0.0000181     0.0000486   -0.0000463     1.0002190   -0.0164261 
   0.480000000     0.0048096   -0.0033404    -0.0000048   -0.0000333     0.0000170    0.0000061     0.9996386   -0.0178108 
   0.520000000     0.0057035   -0.0039266     0.0000104   -0.0000353    -0.0000324   -0.0000298     1.0010730   -0.0184009 
   0.560000000     0.0057135   -0.0032974    -0.0000305   -0.0000663     0.0000071    0.0000067     1.0015570   -0.0202449 
   0.600000000     0.0041797   -0.0038827     0.0000354   -0.0000045    -0.0000197    0.0000376     1.0004350   -0.0225966 
   0.640000000     0.0053451   -0.0057480    -0.0000228    0.0000155    -0.0000041   -0.0000186     1.0005040   -0.0233767 
   0.680000000     0.0060395   -0.0041206     0.0000228    0.0000221    -0.0000155    0.0000220     1.0008640   -0.0231171 
   0.720000000     0.0034216   -0.0044852     0.0000048   -0.0000305     0.0000194   -0.0000143     0.9996720   -0.0263821 
   0.760000000     0.0039429   -0.0072550    -0.0000345   -0.0000156     0.0000167   -0.0000073     0.9997995   -0.0281088 
   0.800000000     0.0057647   -0.0061648     0.0000258   -0.0000018    -0.0000117    0.0000106     1.0004960   -0.0279333 
   0.840000000     0.0033884   -0.0050503     0.0000346   -0.0000246    -0.0000085    0.0000183     0.9989991   -0.0303621 
   0.880000000     0.0024962   -0.0081377    -0.0000231   -0.0000183    -0.0000105   -0.0000139     0.9991361   -0.0335289 
   0.920000000     0.0048784   -0.0081764     0.0000172    0.0000435    -0.0000241    0.0000268     0.9998131   -0.0325251 
   0.960000000     0.0035448   -0.0060967     0.0000125    0.0000032    -0.0000228    0.0000030     0.9983912   -0.0336190 
   1.000000000     0.0012856   -0.0082684    -0.0000286    0.0000036    -0.0000193   -0.0000112     0.9986972   -0.0379130 
   1.040000000     0.0034035   -0.0097242     0.0000373   -0.0000207     0.0000149    0.0000006     0.9999596   -0.0377835 
   1.080000000     0.0033640   -0.0072525     0.0000138    0.0000145     0.0000120    0.0000147     0.9988765   -0.0373902 
   1.120000000     0.0003721   -0.0082290    -0.0000112   -0.0000169     0.0000129   -0.0000244     0.9979115   -0.0418662 
   1.160000000     0.0013964   -0.0107280    -0.0000094    0.0000062     0.0000022   -0.0000110     0.9997045   -0.0431054 
   1.200000000     0.0026433   -0.0090215    -0.0000210   -0.0000202    -0.0000319   -0.0000214     0.9992287   -0.0411802 
   1.240000000     0.0000683   -0.0083340    -0.0000252   -0.0000322    -0.0000089    0.0000282     0.9970148   -0.0450315 
   1.280000000    -0.0005295   -0.0107361    -0.0000092   -0.0000230    -0.0000204   -0.0000073     0.9984702   -0.0476875 
   1.320000000     0.0010507   -0.0105273    -0.0000063   -0.0000082    -0.0000283    0.0000100     0.9988235   -0.0467500 
   1.360000000    -0.0001519   -0.0091521    -0.0000083   -0.0000024    -0.0000220    0.0000099     0.9974236   -0.0486021 
   1.400000000    -0.0015403   -0.0103070     0.0000218   -0.0000236    -0.0000141    0.0000039     0.9978589   -0.0519195 
   1.440000000    -0.0009047   -0.0109736    -0.0000092   -0.0000297    -0.0000150   -0.0000209     0.9978845   -0.0513803 
   1.480000000    -0.0011241   -0.0101749    -0.0000193    0.0000072     0.0000220   -0.0000109     0.9976976   -0.0523661 
   1.520000000    -0.0023102   -0.0104647    -0.0000135   -0.0000080    -0.0000077   -0.0000077     0.9972998   -0.0553904 
   1.560000000    -0.0023274   -0.0111310     0.0000032   -0.0000215     0.0000146   -0.0000173     0.9977385   -0.0563525 
   1.600000000    -0.0022995   -0.0107397    -0.0000008   -0.0000065     0.0000182    0.0000097     0.9979529   -0.0571425 
   1.640000000    -0.0033035   -0.0104767    -0.0000003   -0.0000103     0.0000392   -0.0000082     0.9974062   -0.0587833 
   1.680000000    -0.0038201   -0.0111243     0.0000291   -0.0000357     0.0000135    0.0000082     0.9970154   -0.0616122 
   1.720000000    -0.0035869   -0.0110603     0.0000603    0.0000101     0.0000069   -0.0000131     0.9972147   -0.0615594 
   1.760000000    -0.0042827   -0.0104281     0.0000083    0.0000328     0.0000127   -0.0000142     0.9971953   -0.0627970 
   1.800000000    -0.0053277   -0.0110134    -0.0000108    0.0000011    -0.0000116   -0.0000485     0.9963790   -0.0649056 
   1.840000000    -0.0048960   -0.0115008    -0.0000078   -0.0000033    -0.0000033   -0.0000023     0.9971517   -0.0654855 
   1.880000000    -0.0050677   -0.0104678    -0.0000116   -0.0000301    -0.0000280   -0.0000112     0.9964988   -0.0660462 
   1.920000000    -0.0065130   -0.0106221    -0.0000057   -0.0000205     0.0000245   -0.0000354     0.9971558   -0.0683472 
   1.960000000    -0.0062001   -0.0116718    -0.0000652   -0.0000415    -0.0000019    0.0000414     0.9971197   -0.0702539 
   2.000000000    -0.0040544   -0.0110233     0.0000675    0.0000215     0.0000384    0.0000087     0.9958308   -0.0714099 
   2.040000000    -0.0063930   -0.0110730    -0.0000109    0.0000192     0.0000227    0.0000450     0.9959769   -0.0735143 
   2.080000000    -0.0065030   -0.0133632    -0.0000236    0.0000144    -0.0000121    0.0000006     0.9970164   -0.0752847 
   2.120000000    -0.0049113   -0.0120066     0.0000417   -0.0000773     0.0000060    0.0000173     0.9968444   -0.0762043 
   2.160000000    -0.0074091   -0.0107876    -0.0000533    0.0000301     0.0000148    0.0000087     0.9963193   -0.0792979 
   2.200000000    -0.0084848   -0.0133441    -0.0000249    0.0000194    -0.0000023    0.0000551     0.9966633   -0.0802417 
   2.240000000    -0.0058498   -0.0134097     0.0000122    0.0000047     0.0000125   -0.0000072     0.9957955   -0.0796929 
   2.280000000    -0.0066971   -0.0103499    -0.0000220    0.0000298     0.0000137    0.0000370     0.9951873   -0.0818487 
   2.320000000    -0.0095856   -0.0123283    -0.0000719   -0.0000035     0.0000336    0.0000458     0.9989626   -0.0830838 
   2.360000000    -0.0057519   -0.0138395     0.0000064    0.0000272    -0.0000871   -0.0000043     0.9979133   -0.0823197 
   2.400000000    -0.0046739   -0.0079266    -0.0000607    0.0000405    -0.0000093   -0.0000025     0.9945723   -0.0847006 
   2.440000000    -0.0115606   -0.0078685     0.0000604   -0.0000518     0.0000686    0.0000199     0.9988864   -0.0889178 
   2.480000000    -0.0098261   -0.0143711    -0.0000243    0.0000288    -0.0000630   -0.0000313     0.9996206   -0.0862778 
   2.520000000    -0.0083716   -0.0106770    -0.0000161   -0.0000421     0.0000343   -0.0000254     0.9946746   -0.0922854 
   2.560000000    -0.0082723   -0.0097665     0.0000052    0.0000064    -0.0000496    0.0000120     0.9945409   -0.0928169 
   2.600000000    -0.0088137   -0.0093807     0.0000112   -0.0000273    -0.0000724   -0.0000637     0.9940205   -0.0942439 
   2.640000000    -0.0089484   -0.0097484    -0.0000533   -0.0000127    -0.0000179   -0.0000843     0.9941581   -0.0945500 
   2.680000000    -0.0086868   -0.0094394     0.0000065    0.0000435    -0.0000008   -0.0000281     0.9931040   -0.0959991 
   2.720000000    -0.0092771   -0.0088595     0.0000093    0.0000264     0.0000142    0.0000603     0.9939842   -0.0973040 
   2.760000000    -0.0098434   -0.0090956    -0.0000081    0.0000368     0.0000291   -0.0000514     0.9942555   -0.0992230 
   2.800000000    -0.0097379   -0.0092188    -0.0000004   -0.0000021     0.0000246   -0.0000164     0.9933612   -0.1002407 
   2.840000000    -0.0101583   -0.0087832    -0.0000101    0.0000054    -0.0000034   -0.0000281     0.9929164   -0.1018355 
   2.880000000    -0.0105260   -0.0084513     0.0000575   -0.0000151     0.0000337    0.0000797     0.9947740   -0.1036908 
   2.920000000    -0.0110644   -0.0084675    -0.0000111    0.0000036     0.0000010   -0.0000346     0.9943095   -0.1063693 
   2.960000000    -0.0113002   -0.0085954     0.0000155   -0.0000423     0.0000776    0.0000173     0.9931148   -0.1067169 
   3.000000000    -0.0114412   -0.0084052     0.0000014    0.0000450     0.0000187   -0.0000119     0.9940456   -0.1084788 
   3.040000000    -0.0118272   -0.0076624    -0.0000092    0.0000187    -0.0000127   -0.0000006     0.9938843   -0.1108863 
   3.080000000    -0.0125822   -0.0077566    -0.0000275    0.0000072    -0.0000376   -0.0000033     0.9919488   -0.1116206 
   3.120000000    -0.0124341   -0.0080551    -0.0000052   -0.0000178     0.0000570    0.0000524     0.9928557   -0.1136061 
   3.160000000    -0.0123912   -0.0073590     0.0000357   -0.0000437     0.0000110   -0.0000372     0.9924223   -0.1151845 
   3.200000000    -0.0133264   -0.0066424    -0.0000080   -0.0000160     0.0000030   -0.0000123     0.9919980   -0.1158038 
   3.240000000    -0.0137790   -0.0071023     0.0000437   -0.0000070    -0.0000011    0.0000061     0.9909038   -0.1166918 
   3.280000000    -0.0133335   -0.0071430    -0.0000320   -0.0000128     0.0000107    0.0000036     0.9914423   -0.1178596 
   3.320000000    -0.0135252   -0.0059916    -0.0000040    0.0000114    -0.0000200   -0.0000052     0.9907838   -0.1204787 
   3.360000000    -0.0145933   -0.0057292     0.0000222    0.0000226    -0.0000221    0.0000122     0.9906358   -0.1203275 
   3.400000000    -0.0147548   -0.0062203    -0.0000257   -0.0000068     0.0000236    0.0000370     0.9908628   -0.1224583 
   3.440000000    -0.0143028   -0.0056855    -0.0000157   -0.0000127    -0.0000295   -0.0000373     0.9907143   -0.1236162 
   3.480000000    -0.0148697   -0.0046678     0.0000160    0.0000085    -0.0000047   -0.0000232     0.9902847   -0.1245470 
   3.520000000    -0.0157689   -0.0047533    -0.0000104   -0.0000234     0.0000753    0.0000100     0.9908687   -0.1251444 
   3.560000000    -0.0156072   -0.0050118    -0.0000386    0.0000101     0.0000281   -0.0000292     0.9906472   -0.1269078 
   3.600000000    -0.0152910   -0.0040548    -0.0000179   -0.0000141     0.0000295   -0.0000136     0.9899225   -0.1289330 
   3.640000000    -0.0161247   -0.0033636     0.0000018   -0.0000065    -0.0000044   -0.0000015     0.9902622   -0.1297059 
   3.680000000    -0.0167197   -0.0034887    -0.0000197    0.0000371    -0.0000008    0.0000071     0.9904772   -0.1309975 
   3.720000000    -0.0163557   -0.0032854    -0.0000063    0.0000124    -0.0000250    0.0000445     0.9894722   -0.1321791 
   3.760000000    -0.0165530   -0.0024071    -0.0000055   -0.0000087    -0.0000241    0.0000112     0.9891373   -0.1344448 
   3.800000000    -0.0172220   -0.0019930    -0.0000202   -0.0000034    -0.0000198   -0.0000261     0.9899489   -0.1356435 
   3.840000000    -0.0174006   -0.0018805    -0.0000011   -0.0000143     0.0000019    0.0000071     0.9897931   -0.1364134 
   3.880000000    -0.0171207   -0.0014456     0.0000373    0.0000358     0.0000223    0.0000247     0.9878917   -0.1384016 
   3.920000000    -0.0173417   -0.0007286    -0.0000089    0.0000299    -0.0000044    0.0000104     0.9890925   -0.1398335 
   3.960000000    -0.0178336   -0.0004584    -0.0000159    0.0000087     0.0000440   -0.0000204     0.9890092   -0.1410524 
   4.000000000    -0.0176808   -0.0002199     0.0000047   -0.0000170     0.0000045    0.0000229     0.9881589   -0.1416280 
   4.040000000    -0.0175502    0.0003267     0.0000205   -0.0000122    -0.0000109    0.0000101     0.9873030   -0.1436545 
   4.080000000    -0.0176768    0.0009707    -0.0000010    0.0000199    -0.0000050    0.0000457     0.9879073   -0.1445659 
   4.120000000    -0.0178635    0.0011636    -0.0000257    0.0000126    -0.0000010   -0.0000200     0.9870368   -0.1458628 
   4.160000000    -0.0177514    0.0014978    -0.0000117    0.0000120     0.0000216   -0.0000006     0.9867427   -0.1467238 
   4.200000000    -0.0176823    0.0019590    -0.0000118   -0.0000174    -0.0000194   -0.0000039     0.9865221   -0.1478655 
   4.240000000    -0.0178008    0.0023404     0.0000050   -0.0000013    -0.0000060   -0.0000094     0.9860578   -0.1507502 
   4.280000000    -0.0177981    0.0026662    -0.0000013   -0.0000051     0.0000024   -0.0000108     0.9858290   -0.1509213 
   4.320000000    -0.0176488    0.0029985     0.0000281   -0.0000010     0.0000186   -0.0000153     0.9860980   -0.1509765 
   4.360000000    -0.0177190    0.0034715    -0.0000235   -0.0000023     0.0000188    0.0000040     0.9857684   -0.1540325 
   4.400000000    -0.0177391    0.0036720     0.0000289    0.0000000    -0.0000032    0.0000015     0.9846044   -0.1545515 
   4.440000000    -0.0176074    0.0041381     0.0000245    0.0000362    -0.0000065   -0.0000112     0.9845914   -0.1548904 
   4.480000000    -0.0175789    0.0046830     0.0000423   -0.0000221     0.0000318    0.0000008     0.9845458   -0.1555121 
   4.520000000    -0.0176148    0.0049813     0.0000085   -0.0000158    -0.0000058    0.0000124     0.9847088   -0.1584416 
   4.560000000    -0.0175574    0.0054483    -0.0000254   -0.0000024     0.0000135    0.0000004     0.9840451   -0.1595291 
   4.600000000    -0.0175001    0.0059345     0.0000196   -0.0000148    -0.0000206    0.0000155     0.9855161   -0.1606607 
   4.640000000    -0.0175138    0.0062908    -0.0000093    0.0000562    -0.0000541   -0.0000303     0.9845219   -0.1621786 
   4.680000000    -0.0174472    0.0067603     0.0000019    0.0000137     0.0000220    0.0000234     0.9838673   -0.1633705 
   4.720000000    -0.0172601    0.0072370     0.0000045    0.0000248     0.0000084   -0.0000213     0.9838899   -0.1630714 
   4.760000000    -0.0172029    0.0078497    -0.0000327    0.0000039     0.0000038   -0.0000248     0.9836316   -0.1656903 
   4.800000000    -0.0172564    0.0081824    -0.0000028    0.0000052    -0.0000311    0.0000115     0.9835620   -0.1670469 
   4.840000000    -0.0169852    0.0086739    -0.0000289    0.0000060    -0.0000252   -0.0000272     0.9833088   -0.1672203 
   4.880000000    -0.0167461    0.0094203     0.0000284   -0.0000009    -0.0000228    0.0000110     0.9829268   -0.1676437 
   4.920000000    -0.0167198    0.0100492     0.0000010   -0.0000001     0.0000252    0.0000212     0.9826708   -0.1699970 
   4.960000000    -0.0167295    0.0104638     0.0000036    0.0000325    -0.0000344   -0.0000245     0.9821954   -0.1704315 
   5.000000000    -0.0162710    0.0109411     0.0000196    0.0000155    -0.0000159   -0.0000197     0.9815618   -0.1715133 
   5.040000000    -0.0159046    0.0119104     0.0000341    0.0000327    -0.0000702    0.0000163     0.9815892   -0.1731691 
   5.080000000    -0.0160078    0.0124772    -0.0000475    0.0000630    -0.0000162   -0.0000084     0.9805169   -0.1741509 
   5.120000000    -0.0156687    0.0128180     0.0000157   -0.0000082    -0.0000335    0.0000174     0.9813623   -0.1749070 
   5.160000000    -0.0149787    0.0134405     0.0000377    0.0000153    -0.0000300    0.0000442     0.9812396   -0.1764363 
   5.200000000    -0.0147196    0.0142867    -0.0000341    0.0000191    -0.0000016    0.0000284     0.9810295   -0.1776117 
   5.240000000    -0.0146706    0.0146823     0.0000095    0.0000307    -0.0000154    0.0000461     0.9803626   -0.1776473 
   5.280000000    -0.0140199    0.0150038    -0.0000602    0.0000220     0.0000135    0.0000253     0.9801979   -0.1788116 
   5.320000000    -0.0132280    0.0157380     0.0000177   -0.0000045    -0.0000103    0.0000274     0.9800088   -0.1801279 
   5.360000000    -0.0131261    0.0165427     0.0000391    0.0000168    -0.0000275   -0.0000179     0.9796209   -0.1813243 
   5.400000000    -0.0128272    0.0164108    -0.0000125    0.0000000     0.0000023    0.0000167     0.9797255   -0.1819915 
   5.440000000    -0.0119635    0.0166027    -0.0000050   -0.0000296    -0.0000170    0.0000280     0.9799154   -0.1836635 
   5.480000000    -0.0113141    0.0173335     0.0000120   -0.0000015    -0.0000047    0.0000130     0.9793996   -0.1853389 
   5.520000000    -0.0112497    0.0177394     0.0000103   -0.0000294    -0.0000297    0.0000232     0.9784733   -0.1859024 
   5.560000000    -0.0108496    0.0174543     0.0000055   -0.0000321    -0.0000356    0.0000158     0.9784513   -0.1871017 
   5.600000000    -0.0098828    0.0177183    -0.0000229   -0.0000546    -0.0000209   -0.0000039     0.9771500   -0.1891658 
   5.640000000    -0.0094656    0.0184460    -0.0000043   -0.0000520     0.0000038    0.0000214     0.9781098   -0.1900893 
   5.680000000    -0.0093378    0.0184830     0.0000147    0.0000087    -0.0000188   -0.0000097     0.9774452   -0.1905643 
   5.720000000    -0.0087405    0.0181316     0.0000283   -0.0000523    -0.0000114    0.0000114     0.9771499   -0.1925765 
   5.760000000    -0.0078903    0.0186174     0.0000077    0.0000112     0.0000087    0.0000274     0.9770103   -0.1937487 
   5.800000000    -0.0077629    0.0191484     0.0000056    0.0000039     0.0000128    0.0000076     0.9768794   -0.1945985 
   5.840000000    -0.0074758    0.0189872    -0.0000263    0.0000117     0.0000062   -0.0000156     0.9766945   -0.1960485 
   5.880000000    -0.0067204    0.0189433     0.0000383   -0.0000052    -0.0000022   -0.0000239     0.9755741   -0.1972385 
   5.920000000    -0.0060234    0.0193260     0.0000320    0.0000273     0.0000102    0.0000072     0.9754238   -0.1987181 
   5.960000000    -0.0059354    0.0194874    -0.0000095    0.0000087    -0.0000434   -0.0000267     0.9757921   -0.1988535 
   6.000000000    -0.0055387    0.0192405    -0.0000423   -0.0000022    -0.0000109   -0.0000100     0.9751128   -0.2003388 
   6.040000000    -0.0047380    0.0192493    -0.0000105    0.0000121     0.0000012    0.0000053     0.9741991   -0.2019239 
   6.080000000    -0.0042790    0.0196200    -0.0000075    0.0000083     0.0000128    0.0000460     0.9742552   -0.2042221 
   6.120000000    -0.0041683    0.0196688     0.0000142    0.0000183    -0.0000292   -0.0000268     0.9743347   -0.2039153 
   6.160000000    -0.0035257    0.0194206    -0.0000290   -0.0000174     0.0000133    0.0000075     0.9728870   -0.2043679 
   6.200000000    -0.0027791    0.0196062    -0.0000231   -0.0000059    -0.0000068   -0.0000246     0.9723164   -0.2067722 
   6.240000000    -0.0024606    0.0198226     0.0000261    0.0000400     0.0000034    0.0000436     0.9731398   -0.2077236 
   6.280000000    -0.0023677    0.0197147     0.0000213    0.0000138     0.0000050    0.0000158     0.9724068   -0.2085043 
