! 10/23/2023 14:39:42
! D:\MS4647AVNA\292MM 230924XX\23092448.S2P
! CHANNEL.1
! TR.MEASUREMENT
! CORRECTED.DATA
# GHZ S RI R 50.0
! FREQ.GHZ         S11RE         S11IM         S21RE         S21IM         S12RE         S12IM         S22RE         S22IM         
!; PortSelection: Port_12
   0.040000000     0.0004933    0.0006537     0.9994507   -0.0157279     0.9992893   -0.0150937     0.0004214    0.0005417 
   0.080000000     0.0006126    0.0007135     0.9988596   -0.0302955     0.9992748   -0.0302789     0.0007271    0.0006847 
   0.120000000     0.0011259    0.0006683     0.9979542   -0.0452480     0.9979982   -0.0453336     0.0009933    0.0007733 
   0.160000000     0.0013277    0.0008088     0.9969489   -0.0603408     0.9968154   -0.0598739     0.0012816    0.0006452 
   0.200000000     0.0015226    0.0008620     0.9957296   -0.0752993     0.9956967   -0.0739056     0.0015005    0.0005753 
   0.240000000     0.0016080    0.0007417     0.9950239   -0.0895244     0.9949450   -0.0895570     0.0016334    0.0008085 
   0.280000000     0.0019343    0.0005086     0.9933938   -0.1045722     0.9925722   -0.1046270     0.0016709    0.0005579 
   0.320000000     0.0022666    0.0006298     0.9910251   -0.1186707     0.9909368   -0.1185445     0.0021197    0.0004140 
   0.360000000     0.0021560    0.0005740     0.9894406   -0.1331510     0.9892139   -0.1336788     0.0020361    0.0003149 
   0.400000000     0.0021901    0.0001876     0.9873203   -0.1484300     0.9871386   -0.1486095     0.0020553    0.0002421 
   0.440000000     0.0028052   -0.0002216     0.9845253   -0.1633931     0.9849270   -0.1630372     0.0022462   -0.0001636 
   0.480000000     0.0029726    0.0004564     0.9823134   -0.1779068     0.9819824   -0.1773409     0.0024874   -0.0000184 
   0.520000000     0.0024168   -0.0000061     0.9796141   -0.1924227     0.9794552   -0.1922798     0.0025270   -0.0001121 
   0.560000000     0.0029870   -0.0006655     0.9770312   -0.2070886     0.9764184   -0.2066568     0.0024976   -0.0005599 
   0.600000000     0.0031165   -0.0004603     0.9739874   -0.2214870     0.9730214   -0.2204961     0.0021152   -0.0003357 
   0.640000000     0.0030233   -0.0005483     0.9703649   -0.2351719     0.9696748   -0.2354843     0.0025626   -0.0007050 
   0.680000000     0.0027635   -0.0009479     0.9660796   -0.2495038     0.9655850   -0.2494451     0.0028037   -0.0009481 
   0.720000000     0.0032315   -0.0012106     0.9623931   -0.2635903     0.9617850   -0.2637187     0.0029232   -0.0014918 
   0.760000000     0.0033800   -0.0011287     0.9584718   -0.2772421     0.9582363   -0.2781377     0.0037981   -0.0009711 
   0.800000000     0.0028908   -0.0013350     0.9539498   -0.2925192     0.9537565   -0.2924748     0.0035067   -0.0005968 
   0.840000000     0.0027351   -0.0025727     0.9492803   -0.3064776     0.9489163   -0.3056638     0.0022550   -0.0019376 
   0.880000000     0.0040055   -0.0023867     0.9450411   -0.3194062     0.9451493   -0.3200319     0.0031575   -0.0027079 
   0.920000000     0.0029749   -0.0007743     0.9398945   -0.3344711     0.9401641   -0.3345829     0.0028947   -0.0012437 
   0.960000000     0.0015595   -0.0032277     0.9340088   -0.3481277     0.9343070   -0.3480259     0.0013807   -0.0022837 
   1.000000000     0.0037931   -0.0039383     0.9294009   -0.3611341     0.9298874   -0.3619623     0.0033289   -0.0030469 
   1.040000000     0.0038792   -0.0009634     0.9242649   -0.3756594     0.9239014   -0.3757531     0.0036864   -0.0011641 
   1.080000000     0.0010256   -0.0025920     0.9174960   -0.3893769     0.9176180   -0.3890128     0.0019622   -0.0019229 
   1.120000000     0.0029241   -0.0053755     0.9122653   -0.4026559     0.9123130   -0.4029330     0.0018769   -0.0039342 
   1.160000000     0.0045084   -0.0027666     0.9063823   -0.4162293     0.9068388   -0.4161925     0.0037615   -0.0029731 
   1.200000000     0.0010933   -0.0023319     0.8993890   -0.4296481     0.8997959   -0.4295662     0.0018795   -0.0013969 
   1.240000000     0.0015899   -0.0060490     0.8932313   -0.4427848     0.8932877   -0.4430551     0.0004720   -0.0042739 
   1.280000000     0.0044612   -0.0042865     0.8870518   -0.4558370     0.8873218   -0.4560580     0.0037462   -0.0053542 
   1.320000000     0.0014293   -0.0023390     0.8803292   -0.4690186     0.8800979   -0.4694943     0.0036073   -0.0017907 
   1.360000000     0.0000638   -0.0060471     0.8723170   -0.4818906     0.8729950   -0.4815003    -0.0000159   -0.0030385 
   1.400000000     0.0035694   -0.0063230     0.8657810   -0.4951244     0.8651363   -0.4947218     0.0020431   -0.0061829 
   1.440000000     0.0024422   -0.0030045     0.8584838   -0.5075638     0.8582251   -0.5073952     0.0040004   -0.0035064 
   1.480000000    -0.0004396   -0.0051825     0.8509306   -0.5201281     0.8503287   -0.5199535     0.0006453   -0.0026187 
   1.520000000     0.0016665   -0.0070168     0.8423931   -0.5330666     0.8426014   -0.5327641     0.0006193   -0.0058296 
   1.560000000     0.0021693   -0.0045835     0.8352798   -0.5452496     0.8346608   -0.5451042     0.0032455   -0.0050854 
   1.600000000    -0.0003854   -0.0050345     0.8268141   -0.5570726     0.8261167   -0.5571613     0.0014510   -0.0032106 
   1.640000000     0.0001821   -0.0070270     0.8178252   -0.5696390     0.8179302   -0.5704119     0.0000705   -0.0051430 
   1.680000000     0.0011769   -0.0060574     0.8098821   -0.5819918     0.8096229   -0.5818911     0.0015263   -0.0057526 
   1.720000000    -0.0003510   -0.0052422     0.8015786   -0.5937663     0.8011828   -0.5930525     0.0016418   -0.0046297 
   1.760000000    -0.0012195   -0.0066881     0.7922549   -0.6050978     0.7911214   -0.6053942     0.0007085   -0.0047421 
   1.800000000    -0.0001413   -0.0072661     0.7830477   -0.6173213     0.7817773   -0.6174989     0.0002890   -0.0053290 
   1.840000000    -0.0002722   -0.0056025     0.7737346   -0.6285527     0.7736849   -0.6284266     0.0003519   -0.0056801 
   1.880000000    -0.0023508   -0.0055535     0.7649350   -0.6398453     0.7650982   -0.6398333     0.0009302   -0.0056105 
   1.920000000    -0.0023593   -0.0073445     0.7548748   -0.6511401     0.7539661   -0.6516680     0.0004257   -0.0046613 
   1.960000000    -0.0010259   -0.0062955     0.7444188   -0.6615333     0.7444729   -0.6617118    -0.0007642   -0.0054264 
   2.000000000     0.0035353   -0.0037366     0.7353294   -0.6722998     0.7353872   -0.6731318     0.0044731   -0.0095578 
   2.040000000     0.0029423   -0.0063645     0.7262421   -0.6844158     0.7247878   -0.6843465     0.0035517   -0.0083261 
   2.080000000     0.0050101   -0.0063798     0.7145445   -0.6950018     0.7148008   -0.6949435     0.0019666   -0.0078028 
   2.120000000     0.0034665   -0.0053137     0.7040589   -0.7039061     0.7046229   -0.7047217     0.0031107   -0.0073617 
   2.160000000     0.0025814   -0.0078792     0.6949218   -0.7161314     0.6933542   -0.7160781     0.0028880   -0.0068068 
   2.200000000     0.0060553   -0.0069128     0.6830937   -0.7263497     0.6833416   -0.7250656     0.0013893   -0.0084863 
   2.240000000     0.0033312   -0.0027373     0.6721696   -0.7342544     0.6724054   -0.7352607     0.0008411   -0.0098057 
   2.280000000     0.0001377   -0.0061194     0.6614850   -0.7450011     0.6606612   -0.7450900    -0.0017399   -0.0086410 
   2.320000000     0.0050489   -0.0064561     0.6504335   -0.7569646     0.6504760   -0.7550779    -0.0029802   -0.0090690 
   2.360000000     0.0014250    0.0007413     0.6392417   -0.7637091     0.6389617   -0.7646207    -0.0006517   -0.0057960 
   2.400000000    -0.0068705   -0.0057532     0.6275544   -0.7730287     0.6275713   -0.7740758    -0.0024274   -0.0017592 
   2.440000000     0.0030079   -0.0114907     0.6154910   -0.7829434     0.6158512   -0.7830141    -0.0023618   -0.0054859 
   2.480000000     0.0060314    0.0012186     0.6050423   -0.7926828     0.6043755   -0.7922683     0.0041963   -0.0049622 
   2.520000000     0.0032928   -0.0045862     0.5921566   -0.7983866     0.5920490   -0.8007622     0.0005264   -0.0045800 
   2.560000000     0.0021482   -0.0011517     0.5812123   -0.8069926     0.5810061   -0.8092035     0.0008851   -0.0055232 
   2.600000000    -0.0001176   -0.0027626     0.5691661   -0.8163869     0.5681269   -0.8175800    -0.0000072   -0.0052439 
   2.640000000     0.0016119   -0.0025954     0.5563082   -0.8266769     0.5562242   -0.8264490    -0.0005489   -0.0051376 
   2.680000000     0.0016536   -0.0021305     0.5443559   -0.8312345     0.5435552   -0.8341152    -0.0010668   -0.0041435 
   2.720000000     0.0012518   -0.0017057     0.5324409   -0.8429601     0.5313033   -0.8424601    -0.0005196   -0.0037361 
   2.760000000     0.0012874   -0.0022945     0.5182390   -0.8505861     0.5189000   -0.8498704    -0.0009196   -0.0029703 
   2.800000000     0.0013748   -0.0013453     0.5061753   -0.8565538     0.5067611   -0.8580551     0.0011222   -0.0023856 
   2.840000000     0.0008882   -0.0015190     0.4956391   -0.8658295     0.4934511   -0.8659022     0.0013452   -0.0019375 
   2.880000000     0.0004391   -0.0018793     0.4793390   -0.8740013     0.4800898   -0.8719243     0.0026943   -0.0025308 
   2.920000000     0.0007113   -0.0019834     0.4672153   -0.8776609     0.4684161   -0.8794517     0.0038852   -0.0034203 
   2.960000000     0.0013206   -0.0014355     0.4565297   -0.8864931     0.4555459   -0.8862343     0.0044423   -0.0039702 
   3.000000000     0.0007873   -0.0007665     0.4418547   -0.8934740     0.4393142   -0.8914036     0.0053418   -0.0057174 
   3.040000000     0.0002295   -0.0018358     0.4270534   -0.8993757     0.4305463   -0.8988588     0.0060256   -0.0060045 
   3.080000000     0.0009539   -0.0024602     0.4166926   -0.9029811     0.4155561   -0.9063082     0.0043909   -0.0069846 
   3.120000000     0.0012348   -0.0005694     0.4020657   -0.9136035     0.4007610   -0.9101059     0.0044519   -0.0090768 
   3.160000000     0.0001488   -0.0002788     0.3868155   -0.9175490     0.3891165   -0.9153594     0.0047791   -0.0089005 
   3.200000000     0.0005146   -0.0020202     0.3731940   -0.9220145     0.3759288   -0.9233102     0.0033689   -0.0095776 
   3.240000000     0.0020114   -0.0014259     0.3633140   -0.9279324     0.3592721   -0.9294320     0.0029006   -0.0101472 
   3.280000000     0.0006173    0.0006118     0.3471701   -0.9356984     0.3475688   -0.9311590     0.0021902   -0.0108516 
   3.320000000    -0.0008353   -0.0014658     0.3303804   -0.9379448     0.3337423   -0.9395066     0.0029058   -0.0102427 
   3.360000000     0.0009387   -0.0021492     0.3210020   -0.9420474     0.3195318   -0.9439503     0.0012024   -0.0101254 
   3.400000000     0.0015741   -0.0009539     0.3067336   -0.9487993     0.3036039   -0.9470984     0.0005583   -0.0110520 
   3.440000000     0.0007013    0.0003140     0.2892863   -0.9536819     0.2936851   -0.9520195     0.0009366   -0.0098927 
   3.480000000    -0.0010201   -0.0015904     0.2758228   -0.9523062     0.2768298   -0.9577180    -0.0007267   -0.0090371 
   3.520000000     0.0013829   -0.0022825     0.2656703   -0.9628014     0.2614821   -0.9601971    -0.0010316   -0.0088685 
   3.560000000     0.0010464   -0.0001654     0.2476115   -0.9649917     0.2494046   -0.9636003    -0.0010571   -0.0092113 
   3.600000000    -0.0007283   -0.0008848     0.2314369   -0.9669135     0.2343987   -0.9691693     0.0006150   -0.0090497 
   3.640000000    -0.0002447   -0.0015952     0.2225981   -0.9698103     0.2188158   -0.9721472     0.0001220   -0.0068251 
   3.680000000     0.0005000   -0.0015078     0.2047427   -0.9772015     0.2052373   -0.9724215    -0.0012105   -0.0077755 
   3.720000000    -0.0001573   -0.0002178     0.1887655   -0.9755298     0.1905421   -0.9781143     0.0002382   -0.0091132 
   3.760000000    -0.0007530   -0.0014475     0.1764597   -0.9793673     0.1770089   -0.9801880     0.0012326   -0.0081420 
   3.800000000     0.0000824   -0.0016668     0.1639100   -0.9825323     0.1621407   -0.9828456     0.0003654   -0.0076834 
   3.840000000     0.0004196   -0.0008444     0.1460716   -0.9862378     0.1483463   -0.9836455    -0.0001701   -0.0088845 
   3.880000000    -0.0006252   -0.0004682     0.1318328   -0.9834664     0.1328479   -0.9876242     0.0002408   -0.0101038 
   3.920000000    -0.0005940   -0.0017599     0.1197212   -0.9898720     0.1175073   -0.9882056     0.0008568   -0.0092575 
   3.960000000     0.0005024   -0.0010564     0.1035491   -0.9908052     0.1051637   -0.9899952    -0.0006957   -0.0091813 
   4.000000000    -0.0001188   -0.0003629     0.0871233   -0.9910347     0.0887995   -0.9917038    -0.0008907   -0.0105356 
   4.040000000    -0.0006952   -0.0007538     0.0760989   -0.9912709     0.0747987   -0.9933279    -0.0005084   -0.0102411 
   4.080000000     0.0002319   -0.0014907     0.0584650   -0.9954406     0.0599437   -0.9928142    -0.0010616   -0.0093050 
   4.120000000     0.0011089   -0.0006882     0.0439382   -0.9939801     0.0458193   -0.9955021    -0.0023580   -0.0096702 
   4.160000000     0.0000140   -0.0002809     0.0286519   -0.9936308     0.0299987   -0.9947281    -0.0024280   -0.0101974 
   4.200000000     0.0003496   -0.0014956     0.0178744   -0.9955927     0.0159506   -0.9950144    -0.0019901   -0.0097319 
   4.240000000     0.0013190   -0.0014365    -0.0016360   -0.9971315     0.0008682   -0.9961250    -0.0024642   -0.0089510 
   4.280000000     0.0012065   -0.0005169    -0.0149853   -0.9924970    -0.0135006   -0.9955416    -0.0034994   -0.0093136 
   4.320000000    -0.0001643   -0.0007630    -0.0271953   -0.9952320    -0.0285835   -0.9945848    -0.0029004   -0.0095450 
   4.360000000     0.0007281   -0.0024470    -0.0425777   -0.9953169    -0.0429272   -0.9943508    -0.0028475   -0.0087793 
   4.400000000     0.0017098   -0.0011509    -0.0597966   -0.9940063    -0.0574669   -0.9936620    -0.0035646   -0.0086456 
   4.440000000     0.0002377   -0.0006732    -0.0715486   -0.9901231    -0.0733454   -0.9931649    -0.0036062   -0.0094358 
   4.480000000    -0.0003149   -0.0017512    -0.0857550   -0.9923629    -0.0883474   -0.9908503    -0.0025966   -0.0097455 
   4.520000000     0.0004906   -0.0028329    -0.1032688   -0.9911881    -0.1019745   -0.9897284    -0.0021533   -0.0095391 
   4.560000000     0.0010251   -0.0011972    -0.1186585   -0.9864208    -0.1160947   -0.9892559    -0.0023761   -0.0096340 
   4.600000000    -0.0009297   -0.0009862    -0.1300944   -0.9854884    -0.1315988   -0.9869820    -0.0020669   -0.0101584 
   4.640000000    -0.0008142   -0.0022254    -0.1450708   -0.9864696    -0.1455402   -0.9845585    -0.0015282   -0.0089984 
   4.680000000    -0.0000243   -0.0021373    -0.1629226   -0.9818130    -0.1612426   -0.9819697    -0.0026714   -0.0086832 
   4.720000000     0.0002057   -0.0006711    -0.1729057   -0.9773131    -0.1750322   -0.9795213    -0.0032345   -0.0087291 
   4.760000000    -0.0014636   -0.0009895    -0.1883819   -0.9788942    -0.1908300   -0.9775625    -0.0026023   -0.0090753 
   4.800000000    -0.0005799   -0.0023248    -0.2046440   -0.9739638    -0.2032938   -0.9730013    -0.0029318   -0.0075651 
   4.840000000     0.0003122   -0.0010947    -0.2186352   -0.9696673    -0.2187588   -0.9712380    -0.0039856   -0.0076785 
   4.880000000    -0.0003365   -0.0000933    -0.2304151   -0.9669797    -0.2325570   -0.9674295    -0.0038822   -0.0079431 
   4.920000000    -0.0011711   -0.0009673    -0.2470434   -0.9662342    -0.2476893   -0.9651302    -0.0028438   -0.0073188 
   4.960000000     0.0004454   -0.0018589    -0.2614435   -0.9584253    -0.2604520   -0.9590572    -0.0035293   -0.0059116 
   5.000000000     0.0007864   -0.0001187    -0.2741579   -0.9560866    -0.2758111   -0.9565978    -0.0043156   -0.0061999 
   5.040000000    -0.0006362    0.0004032    -0.2882861   -0.9520853    -0.2899693   -0.9522135    -0.0032876   -0.0062469 
   5.080000000     0.0002939   -0.0012544    -0.3046022   -0.9490013    -0.3029431   -0.9468243    -0.0027570   -0.0051567 
   5.120000000     0.0018687   -0.0009325    -0.3167117   -0.9404222    -0.3166529   -0.9432096    -0.0033641   -0.0048237 
   5.160000000     0.0014244    0.0007674    -0.3305597   -0.9395265    -0.3315286   -0.9391119    -0.0032100   -0.0052436 
   5.200000000     0.0007889   -0.0005919    -0.3453240   -0.9332045    -0.3454745   -0.9327089    -0.0017923   -0.0051680 
   5.240000000     0.0024053   -0.0010208    -0.3596224   -0.9276030    -0.3585579   -0.9278526    -0.0017258   -0.0041680 
   5.280000000     0.0026233    0.0000522    -0.3706209   -0.9217027    -0.3722445   -0.9226389    -0.0025483   -0.0043169 
   5.320000000     0.0019136   -0.0002064    -0.3855068   -0.9189029    -0.3866158   -0.9177408    -0.0018492   -0.0054910 
   5.360000000     0.0024434   -0.0014741    -0.4000489   -0.9103524    -0.3999505   -0.9103267    -0.0008178   -0.0049833 
   5.400000000     0.0039879   -0.0008845    -0.4126327   -0.9047156    -0.4134007   -0.9050109    -0.0017420   -0.0040488 
   5.440000000     0.0029337    0.0000833    -0.4259877   -0.8989254    -0.4271781   -0.8989041    -0.0023267   -0.0049134 
   5.480000000     0.0021714   -0.0014541    -0.4403871   -0.8933200    -0.4404278   -0.8922376    -0.0013896   -0.0058716 
   5.520000000     0.0034877   -0.0024127    -0.4530904   -0.8838721    -0.4531053   -0.8855996    -0.0004810   -0.0045914 
   5.560000000     0.0044049   -0.0009998    -0.4654950   -0.8797977    -0.4657473   -0.8790123    -0.0017809   -0.0039728 
   5.600000000     0.0025610   -0.0008736    -0.4781996   -0.8720452    -0.4802726   -0.8719462    -0.0021272   -0.0052390 
   5.640000000     0.0024806   -0.0027258    -0.4922010   -0.8655206    -0.4911585   -0.8642294    -0.0009945   -0.0053762 
   5.680000000     0.0039997   -0.0029968    -0.5032283   -0.8557169    -0.5044907   -0.8574371    -0.0008150   -0.0038686 
   5.720000000     0.0035311   -0.0014566    -0.5155799   -0.8511956    -0.5171372   -0.8500834    -0.0020238   -0.0040645 
   5.760000000     0.0017325   -0.0023048    -0.5301006   -0.8417168    -0.5297421   -0.8416681    -0.0016207   -0.0052294 
   5.800000000     0.0025617   -0.0043731    -0.5424279   -0.8342193    -0.5416774   -0.8338283    -0.0002417   -0.0049383 
   5.840000000     0.0040745   -0.0035885    -0.5533852   -0.8243008    -0.5542855   -0.8267193    -0.0007763   -0.0032348 
   5.880000000     0.0026803   -0.0021864    -0.5655051   -0.8198129    -0.5656813   -0.8169867    -0.0021357   -0.0044496 
   5.920000000     0.0011717   -0.0042236    -0.5801899   -0.8086246    -0.5785003   -0.8095668    -0.0007600   -0.0054599 
   5.960000000     0.0028062   -0.0055917    -0.5889242   -0.8003797    -0.5910149   -0.8004119     0.0004702   -0.0043192 
   6.000000000     0.0035754   -0.0040123    -0.6014366   -0.7917804    -0.6019090   -0.7917174    -0.0008816   -0.0033911 
   6.040000000     0.0015686   -0.0033795    -0.6143606   -0.7842337    -0.6135887   -0.7823355    -0.0016816   -0.0046363 
   6.080000000     0.0006093   -0.0054386    -0.6250932   -0.7728389    -0.6248193   -0.7739353    -0.0001700   -0.0052292 
   6.120000000     0.0024507   -0.0062024    -0.6355774   -0.7645578    -0.6370009   -0.7642522     0.0004208   -0.0037390 
   6.160000000     0.0023033   -0.0042035    -0.6477044   -0.7545946    -0.6476032   -0.7547754    -0.0013174   -0.0033652 
   6.200000000     0.0002811   -0.0048539    -0.6597307   -0.7459914    -0.6582886   -0.7449154    -0.0013786   -0.0046261 
   6.240000000     0.0002692   -0.0064668    -0.6703920   -0.7337049    -0.6688783   -0.7361852     0.0000316   -0.0046061 
   6.280000000     0.0016031   -0.0065934    -0.6788048   -0.7264090    -0.6813588   -0.7244627     0.0001092   -0.0032190 
