! 10/19/2020 15:48:48
! D:\MS4647AVNA\240F185F 200318XX\20031818.S2P
! CHANNEL.1
! TR.MEASUREMENT
! CORRECTED.DATA
# GHZ S RI R 50.0
! FREQ.GHZ         S11RE         S11IM         S21RE         S21IM         S12RE         S12IM         S22RE         S22IM         
!; PortSelection: Port_12
   0.040000000     0.0033642    0.0021201     0.0000090   -0.0000134    -0.0000243    0.0000025     1.0016280   -0.0027017 
   0.080000000     0.0044412    0.0027311    -0.0000103    0.0000077    -0.0000032    0.0000022     1.0014080   -0.0033194 
   0.120000000     0.0057221    0.0029641     0.0000046    0.0000122     0.0000056   -0.0000079     1.0012600   -0.0062221 
   0.160000000     0.0066534    0.0029578    -0.0000138    0.0000183    -0.0000174   -0.0000016     1.0017410   -0.0067790 
   0.200000000     0.0070357    0.0028377    -0.0000115    0.0000090     0.0000066   -0.0000283     1.0009090   -0.0075656 
   0.240000000     0.0073044    0.0024824    -0.0000010    0.0000104     0.0000149    0.0000105     1.0008260   -0.0088735 
   0.280000000     0.0077791    0.0023123     0.0000098   -0.0000170     0.0000164    0.0000223     1.0009510   -0.0106635 
   0.320000000     0.0080637    0.0022919     0.0000088   -0.0000221    -0.0000293    0.0000104     1.0010980   -0.0116216 
   0.360000000     0.0081649    0.0021629     0.0000126    0.0000177    -0.0000282    0.0000017     1.0009280   -0.0149925 
   0.400000000     0.0083255    0.0019163    -0.0000041   -0.0000067    -0.0000144    0.0000125     1.0000190   -0.0148971 
   0.440000000     0.0085537    0.0015658     0.0000024   -0.0000081    -0.0000343   -0.0000432     1.0012480   -0.0157004 
   0.480000000     0.0091519    0.0015278    -0.0000060    0.0000026     0.0000231   -0.0000208     1.0002810   -0.0185455 
   0.520000000     0.0091576    0.0018586    -0.0000094    0.0000234     0.0000120    0.0000233     1.0010280   -0.0186871 
   0.560000000     0.0089587    0.0016309     0.0000729   -0.0000499    -0.0000082    0.0000387     1.0007650   -0.0210008 
   0.600000000     0.0093525    0.0009209     0.0000649    0.0000228    -0.0000394    0.0000037     1.0018280   -0.0227531 
   0.640000000     0.0099289    0.0012110     0.0000008    0.0000183     0.0000047    0.0000117     1.0019030   -0.0244252 
   0.680000000     0.0094813    0.0013126    -0.0000074    0.0000355     0.0000077    0.0000314     0.9995884   -0.0256536 
   0.720000000     0.0090974    0.0005711    -0.0000004    0.0000156     0.0000165    0.0000024     1.0000120   -0.0273876 
   0.760000000     0.0097101   -0.0001295    -0.0000015    0.0000102    -0.0000098    0.0000083     1.0001100   -0.0283531 
   0.800000000     0.0104141    0.0001040    -0.0000112    0.0000133     0.0000308    0.0000442     0.9998598   -0.0293616 
   0.840000000     0.0101803    0.0002852     0.0000140    0.0000160    -0.0000029   -0.0000020     0.9991350   -0.0318335 
   0.880000000     0.0100780   -0.0000969     0.0000049   -0.0000053    -0.0000242    0.0000155     1.0002190   -0.0331982 
   0.920000000     0.0099827   -0.0003278     0.0000283   -0.0000068     0.0000186    0.0000206     0.9999117   -0.0331628 
   0.960000000     0.0099222   -0.0004477    -0.0000166    0.0000096     0.0000049   -0.0000049     0.9987398   -0.0347935 
   1.000000000     0.0100749   -0.0008877     0.0000037    0.0000276     0.0000119   -0.0000217     0.9988233   -0.0374812 
   1.040000000     0.0101621   -0.0010170     0.0000038    0.0000029    -0.0000037   -0.0000315     1.0000800   -0.0377711 
   1.080000000     0.0101321   -0.0010410     0.0000070   -0.0000151    -0.0000185    0.0000009     0.9988483   -0.0377323 
   1.120000000     0.0099083   -0.0011869    -0.0000072   -0.0000084    -0.0000148   -0.0000088     0.9982556   -0.0408271 
   1.160000000     0.0098968   -0.0016325     0.0000069   -0.0000051     0.0000185    0.0000146     0.9990081   -0.0425282 
   1.200000000     0.0101145   -0.0018185    -0.0000075   -0.0000061     0.0000179    0.0000147     0.9996149   -0.0425928 
   1.240000000     0.0101248   -0.0015539     0.0000268   -0.0000004     0.0000063    0.0000011     0.9982772   -0.0433986 
   1.280000000     0.0095652   -0.0016057     0.0000124   -0.0000179     0.0000058   -0.0000047     0.9982368   -0.0467126 
   1.320000000     0.0093409   -0.0023155    -0.0000221   -0.0000484    -0.0000287    0.0000207     0.9988464   -0.0481883 
   1.360000000     0.0098782   -0.0027983    -0.0000467   -0.0000063    -0.0000049    0.0000134     0.9988676   -0.0467534 
   1.400000000     0.0102663   -0.0022684     0.0000227    0.0000138     0.0000160   -0.0000062     0.9978545   -0.0494212 
   1.440000000     0.0097269   -0.0018639    -0.0000117   -0.0000327     0.0000156   -0.0000201     0.9981717   -0.0518744 
   1.480000000     0.0090423   -0.0023913    -0.0000191    0.0000057    -0.0000002   -0.0000152     0.9981076   -0.0523287 
   1.520000000     0.0091851   -0.0031047     0.0000427    0.0000223     0.0000375   -0.0000025     0.9979888   -0.0526567 
   1.560000000     0.0097236   -0.0031393    -0.0000413    0.0000165    -0.0000038    0.0000144     0.9984969   -0.0553901 
   1.600000000     0.0096303   -0.0026407     0.0000312   -0.0000427     0.0000099    0.0000097     0.9982430   -0.0570854 
   1.640000000     0.0090775   -0.0027208    -0.0000053    0.0000082    -0.0000072   -0.0000015     0.9974892   -0.0577288 
   1.680000000     0.0088882   -0.0031474     0.0000007    0.0000059    -0.0000058   -0.0000024     0.9982837   -0.0586912 
   1.720000000     0.0091014   -0.0034408     0.0000018   -0.0000133    -0.0000008   -0.0000160     0.9976531   -0.0599875 
   1.760000000     0.0090693   -0.0034218     0.0000094   -0.0000334    -0.0000138   -0.0000124     0.9974898   -0.0619519 
   1.800000000     0.0090380   -0.0033338     0.0000156   -0.0000048    -0.0000033   -0.0000270     0.9971306   -0.0627067 
   1.840000000     0.0087900   -0.0033753    -0.0000073   -0.0000085    -0.0000041   -0.0000001     0.9972068   -0.0638847 
   1.880000000     0.0086224   -0.0034780    -0.0000248   -0.0000056     0.0000104   -0.0000289     0.9972343   -0.0654959 
   1.920000000     0.0084444   -0.0037213    -0.0000351   -0.0000237     0.0000033    0.0000140     0.9971041   -0.0670610 
   1.960000000     0.0085630   -0.0040269    -0.0000385   -0.0000200    -0.0000291    0.0000040     0.9967494   -0.0677518 
   2.000000000     0.0086858   -0.0039867     0.0000423   -0.0000184    -0.0000182    0.0000037     0.9970011   -0.0692618 
   2.040000000     0.0085281   -0.0037444    -0.0000234    0.0000142    -0.0000021    0.0000159     0.9969471   -0.0706805 
   2.080000000     0.0081908   -0.0036673    -0.0000414    0.0000098    -0.0000177   -0.0000271     0.9968976   -0.0715866 
   2.120000000     0.0079412   -0.0041793     0.0000341    0.0000006     0.0000315    0.0000054     0.9961632   -0.0719426 
   2.160000000     0.0080279   -0.0043364     0.0000353    0.0000555     0.0000195    0.0000120     0.9960545   -0.0742615 
   2.200000000     0.0081371   -0.0043174     0.0000351   -0.0000034    -0.0000135   -0.0000284     0.9968967   -0.0760679 
   2.240000000     0.0080112   -0.0041652     0.0000322    0.0000059     0.0000593   -0.0000226     0.9966559   -0.0756479 
   2.280000000     0.0078332   -0.0041472     0.0000481    0.0000039     0.0000486   -0.0000536     0.9955405   -0.0775283 
   2.320000000     0.0073864   -0.0044753     0.0000520   -0.0000710     0.0000362   -0.0000214     0.9957989   -0.0803894 
   2.360000000     0.0074858   -0.0048329    -0.0000804   -0.0000233    -0.0000599   -0.0000263     0.9985939   -0.0807416 
   2.400000000     0.0080223   -0.0047748     0.0000285   -0.0000474     0.0000584    0.0000119     0.9966102   -0.0792576 
   2.440000000     0.0077513   -0.0039588    -0.0000836    0.0000792     0.0000032   -0.0000414     0.9941031   -0.0818563 
   2.480000000     0.0068285   -0.0039300     0.0000136   -0.0000038    -0.0000190    0.0000138     0.9966088   -0.0858153 
   2.520000000     0.0070203   -0.0052630     0.0000423   -0.0000189    -0.0000648   -0.0000370     0.9957752   -0.0854502 
   2.560000000     0.0071506   -0.0047985    -0.0000738    0.0000500    -0.0000168    0.0000269     0.9962914   -0.0861541 
   2.600000000     0.0068336   -0.0046358    -0.0000161    0.0000295     0.0000187    0.0000058     0.9953262   -0.0865096 
   2.640000000     0.0065811   -0.0048045     0.0000266    0.0000340     0.0000232    0.0000037     0.9951515   -0.0870451 
   2.680000000     0.0064401   -0.0049293     0.0000481   -0.0000135     0.0000151    0.0000037     0.9958245   -0.0886767 
   2.720000000     0.0063887   -0.0049680    -0.0000008    0.0000338    -0.0000376    0.0000100     0.9945438   -0.0890309 
   2.760000000     0.0062682   -0.0049297     0.0000100   -0.0000145     0.0000337    0.0000133     0.9941649   -0.0899373 
   2.800000000     0.0061288   -0.0050005    -0.0000107    0.0000026    -0.0000111    0.0000206     0.9935955   -0.0907514 
   2.840000000     0.0060352   -0.0051095     0.0000415   -0.0000446    -0.0000459    0.0000288     0.9937480   -0.0915709 
   2.880000000     0.0058981   -0.0050393     0.0000178   -0.0000125    -0.0000192   -0.0000371     0.9944312   -0.0935567 
   2.920000000     0.0057138   -0.0050742    -0.0000159    0.0000388     0.0000002   -0.0000307     0.9939448   -0.0946771 
   2.960000000     0.0056626   -0.0050251     0.0000187   -0.0000203    -0.0000397    0.0000628     0.9945285   -0.0958133 
   3.000000000     0.0055081   -0.0050280    -0.0000072   -0.0000145    -0.0000053    0.0000177     0.9945836   -0.0980817 
   3.040000000     0.0053061   -0.0050251    -0.0000224    0.0000098    -0.0000071    0.0000096     0.9942606   -0.0991497 
   3.080000000     0.0051383   -0.0051409     0.0000348   -0.0000142    -0.0000225    0.0000106     0.9938117   -0.0988460 
   3.120000000     0.0050163   -0.0051606     0.0000250    0.0000297    -0.0000258   -0.0000154     0.9940321   -0.1004658 
   3.160000000     0.0048836   -0.0051300    -0.0000166    0.0000027    -0.0000250   -0.0000026     0.9935974   -0.1033882 
   3.200000000     0.0047542   -0.0051294    -0.0000122   -0.0000397    -0.0000093    0.0000774     0.9940856   -0.1032325 
   3.240000000     0.0045342   -0.0050679    -0.0000161   -0.0000461    -0.0000159   -0.0000127     0.9936832   -0.1041055 
   3.280000000     0.0045468   -0.0052188     0.0000114   -0.0000079    -0.0000385   -0.0000175     0.9933621   -0.1049264 
   3.320000000     0.0044223   -0.0049954    -0.0000267    0.0000224     0.0000041    0.0000365     0.9938998   -0.1060017 
   3.360000000     0.0042717   -0.0049988    -0.0000314   -0.0000129     0.0000022    0.0000290     0.9938175   -0.1077060 
   3.400000000     0.0040514   -0.0050280     0.0000308    0.0000149     0.0000164    0.0000098     0.9929774   -0.1081730 
   3.440000000     0.0039346   -0.0050853     0.0000214    0.0000085     0.0000049   -0.0000182     0.9937449   -0.1092354 
   3.480000000     0.0037489   -0.0049937    -0.0000084    0.0000156     0.0000154    0.0000216     0.9929882   -0.1106655 
   3.520000000     0.0036089   -0.0050650    -0.0000024    0.0000092    -0.0000133   -0.0000038     0.9925143   -0.1118970 
   3.560000000     0.0035323   -0.0048384     0.0000441    0.0000223     0.0000014   -0.0000142     0.9935285   -0.1133767 
   3.600000000     0.0033502   -0.0048545     0.0000206    0.0000094     0.0000154    0.0000252     0.9928278   -0.1128371 
   3.640000000     0.0032336   -0.0047525     0.0000365    0.0000119    -0.0000235   -0.0000444     0.9919282   -0.1148614 
   3.680000000     0.0031772   -0.0048905    -0.0000212    0.0000038    -0.0000492    0.0000291     0.9918302   -0.1162719 
   3.720000000     0.0029792   -0.0046736    -0.0000115   -0.0000070     0.0000095    0.0000006     0.9927490   -0.1173568 
   3.760000000     0.0029235   -0.0046063    -0.0000088    0.0000142     0.0000181   -0.0000002     0.9925414   -0.1185539 
   3.800000000     0.0027183   -0.0045963    -0.0000340   -0.0000079     0.0000182    0.0000015     0.9918955   -0.1202316 
   3.840000000     0.0025128   -0.0045497     0.0000242    0.0000137    -0.0000482   -0.0000078     0.9917537   -0.1213362 
   3.880000000     0.0024558   -0.0045060     0.0000050   -0.0000049     0.0000465   -0.0000140     0.9914171   -0.1219837 
   3.920000000     0.0024249   -0.0044353     0.0000161   -0.0000160     0.0000368   -0.0000397     0.9920869   -0.1234994 
   3.960000000     0.0022727   -0.0043458    -0.0000480    0.0000207    -0.0000097    0.0000134     0.9911783   -0.1241245 
   4.000000000     0.0021538   -0.0042002     0.0000257    0.0000406     0.0000031   -0.0000010     0.9905422   -0.1246870 
   4.040000000     0.0019119   -0.0041725     0.0000052    0.0000172     0.0000019    0.0000193     0.9909427   -0.1251200 
   4.080000000     0.0018494   -0.0042127     0.0000433    0.0000518    -0.0000410    0.0000422     0.9916446   -0.1268646 
   4.120000000     0.0018788   -0.0040600     0.0000074   -0.0000392    -0.0000400   -0.0000102     0.9907618   -0.1281043 
   4.160000000     0.0017534   -0.0038655     0.0000103   -0.0000213    -0.0000354   -0.0000065     0.9901440   -0.1295123 
   4.200000000     0.0015254   -0.0037365     0.0000106    0.0000229    -0.0000322   -0.0000077     0.9909487   -0.1307008 
   4.240000000     0.0013075   -0.0037489     0.0000178   -0.0000214     0.0000122   -0.0000112     0.9906213   -0.1323422 
   4.280000000     0.0012871   -0.0037523    -0.0000060   -0.0000114    -0.0000183   -0.0000157     0.9901834   -0.1334393 
   4.320000000     0.0012882   -0.0036701     0.0000153    0.0000387    -0.0000140   -0.0000095     0.9901116   -0.1347619 
   4.360000000     0.0012217   -0.0034582     0.0000326   -0.0000036     0.0000592    0.0000368     0.9900356   -0.1361183 
   4.400000000     0.0010345   -0.0032459    -0.0000258   -0.0000090    -0.0000083    0.0000218     0.9899915   -0.1369342 
   4.440000000     0.0007841   -0.0032898     0.0000154   -0.0000140    -0.0000289    0.0000320     0.9897962   -0.1373426 
   4.480000000     0.0007657   -0.0033202    -0.0000184    0.0000236     0.0000120   -0.0000409     0.9899726   -0.1379495 
   4.520000000     0.0007651   -0.0031315    -0.0000113    0.0000321    -0.0000322    0.0000399     0.9893140   -0.1394799 
   4.560000000     0.0007904   -0.0029710    -0.0000006    0.0000267    -0.0000089   -0.0000062     0.9893081   -0.1411590 
   4.600000000     0.0005800   -0.0027828     0.0000073    0.0000131    -0.0000033   -0.0000384     0.9891309   -0.1423758 
   4.640000000     0.0004056   -0.0026470    -0.0000155   -0.0000041    -0.0000353   -0.0000394     0.9888954   -0.1426164 
   4.680000000     0.0003408   -0.0026554     0.0000203    0.0000083     0.0000050   -0.0000185     0.9895811   -0.1442477 
   4.720000000     0.0003626   -0.0026001    -0.0000066    0.0000243     0.0000254   -0.0000191     0.9885140   -0.1450907 
   4.760000000     0.0002877   -0.0024507     0.0000374    0.0000057     0.0000511    0.0000155     0.9880880   -0.1469388 
   4.800000000     0.0001828   -0.0021240     0.0000457   -0.0000023    -0.0000025   -0.0000038     0.9881212   -0.1476120 
   4.840000000     0.0000014   -0.0020999     0.0000598   -0.0000009     0.0000268   -0.0000161     0.9883660   -0.1491862 
   4.880000000     0.0000074   -0.0021050    -0.0000069   -0.0000352    -0.0000166    0.0000424     0.9883245   -0.1506828 
   4.920000000     0.0000655   -0.0020675     0.0000125    0.0000073     0.0000503   -0.0000579     0.9880248   -0.1514699 
   4.960000000     0.0000216   -0.0017630    -0.0000027   -0.0000084     0.0000097    0.0000434     0.9879028   -0.1534227 
   5.000000000    -0.0001686   -0.0016206    -0.0000270   -0.0000184    -0.0000058   -0.0000290     0.9883471   -0.1540233 
   5.040000000    -0.0004306   -0.0013611     0.0000147    0.0000022    -0.0000097    0.0000220     0.9875510   -0.1549056 
   5.080000000    -0.0005010   -0.0015638     0.0000019   -0.0000041    -0.0000087   -0.0000111     0.9864506   -0.1575124 
   5.120000000    -0.0002525   -0.0014678    -0.0000258    0.0000050     0.0000022    0.0000039     0.9870300   -0.1579160 
   5.160000000    -0.0001816   -0.0012391     0.0000329   -0.0000391     0.0000110   -0.0000022     0.9874552   -0.1594344 
   5.200000000    -0.0003479   -0.0009843    -0.0000696   -0.0000300     0.0000164    0.0000498     0.9867672   -0.1606693 
   5.240000000    -0.0005408   -0.0008263     0.0000422   -0.0000159     0.0000578    0.0000023     0.9857841   -0.1613603 
   5.280000000    -0.0005934   -0.0009147    -0.0000133   -0.0000167    -0.0000277    0.0000341     0.9860272   -0.1636861 
   5.320000000    -0.0005618   -0.0009348    -0.0000134    0.0000469     0.0000209    0.0000232     0.9861767   -0.1659248 
   5.360000000    -0.0004089   -0.0005900     0.0000016   -0.0000113    -0.0000171    0.0000092     0.9859565   -0.1660824 
   5.400000000    -0.0004567   -0.0003074     0.0000233    0.0000060    -0.0000203    0.0000136     0.9849978   -0.1667092 
   5.440000000    -0.0006708   -0.0002646    -0.0000256    0.0000085    -0.0000189    0.0000152     0.9852758   -0.1688043 
   5.480000000    -0.0007203   -0.0003080    -0.0000029    0.0000016     0.0000054    0.0000815     0.9846306   -0.1703782 
   5.520000000    -0.0006807   -0.0001293    -0.0000085    0.0000056    -0.0000215   -0.0000207     0.9855077   -0.1710438 
   5.560000000    -0.0005855   -0.0000297    -0.0000128    0.0000133     0.0000079   -0.0000493     0.9843264   -0.1721133 
   5.600000000    -0.0006773    0.0001507    -0.0000045    0.0000128    -0.0000118    0.0000279     0.9840615   -0.1744437 
   5.640000000    -0.0007070    0.0002449    -0.0000087    0.0000746     0.0000242   -0.0000165     0.9839041   -0.1768078 
   5.680000000    -0.0007251    0.0001524    -0.0000220   -0.0000156    -0.0000129   -0.0000408     0.9839290   -0.1772634 
   5.720000000    -0.0006205    0.0002731    -0.0000181   -0.0000120    -0.0000429    0.0000304     0.9840165   -0.1782454 
   5.760000000    -0.0006000    0.0005754    -0.0000145   -0.0000111    -0.0000118   -0.0000150     0.9831840   -0.1803116 
   5.800000000    -0.0007320    0.0006824     0.0000356    0.0000395    -0.0000161   -0.0000038     0.9822894   -0.1818042 
   5.840000000    -0.0008163    0.0007946     0.0000414   -0.0000314     0.0000110    0.0000057     0.9828513   -0.1841032 
   5.880000000    -0.0008294    0.0007037     0.0000439   -0.0000398     0.0000114    0.0000015     0.9821706   -0.1850572 
   5.920000000    -0.0005804    0.0008332    -0.0000417    0.0000283    -0.0000017   -0.0000122     0.9825342   -0.1860243 
   5.960000000    -0.0005841    0.0010098    -0.0000130    0.0000396     0.0000265    0.0000049     0.9810148   -0.1882392 
   6.000000000    -0.0007311    0.0012386     0.0000060   -0.0000200     0.0000013   -0.0000021     0.9812617   -0.1893512 
   6.040000000    -0.0007802    0.0012701     0.0000164    0.0000205     0.0000215   -0.0000057     0.9811288   -0.1909956 
   6.080000000    -0.0007350    0.0012292     0.0000102   -0.0000174    -0.0000358    0.0000365     0.9815522   -0.1921344 
   6.120000000    -0.0005866    0.0013305    -0.0000310   -0.0000402    -0.0000336   -0.0000298     0.9799397   -0.1937210 
   6.160000000    -0.0005039    0.0015963    -0.0000020   -0.0000121     0.0000001    0.0000023     0.9797734   -0.1961338 
   6.200000000    -0.0005822    0.0017873    -0.0000292    0.0000126    -0.0000314   -0.0000528     0.9793203   -0.1972384 
   6.240000000    -0.0007472    0.0017396     0.0000058    0.0000134    -0.0000458    0.0000656     0.9797816   -0.1989130 
   6.280000000    -0.0006533    0.0016367    -0.0000209   -0.0000287    -0.0000067   -0.0000134     0.9794961   -0.2000072 
