! DATE  04/16/2024  15:43
! CORRECTED  DATA
# GHz   S   MA   R 50.00
!     FREQ        S11M         S11A      S21M         S21A      S12M         S12A      S22M         S22A
   0.040000000  2.272876E-03   46.582  1.000010E+00   -3.035  9.998456E-01   -3.012  2.916373E-03   57.268
   0.114950000  5.386495E-03   68.234  9.986512E-01   -8.693  9.990621E-01   -8.530  5.494590E-03   72.610
   0.189900000  8.280235E-03   54.518  9.979218E-01  -14.352  9.983842E-01  -14.344  8.248005E-03   65.444
   0.264850000  1.076416E-02   43.533  9.965357E-01  -19.979  9.962973E-01  -19.957  1.085517E-02   58.761
   0.339800000  1.254808E-02   35.388  9.956024E-01  -25.553  9.958693E-01  -25.580  1.286114E-02   54.321
   0.414750000  1.354207E-02   28.229  9.948716E-01  -31.175  9.949745E-01  -31.156  1.427303E-02   50.175
   0.489700000  1.447426E-02   20.354  9.939148E-01  -36.772  9.946357E-01  -36.754  1.569695E-02   46.379
   0.564650000  1.534131E-02   12.854  9.934486E-01  -42.352  9.934346E-01  -42.308  1.675040E-02   42.121
   0.639600000  1.584473E-02    6.414  9.932317E-01  -47.969  9.934497E-01  -47.907  1.732152E-02   39.343
   0.714550000  1.577603E-02   -0.611  9.929600E-01  -53.524  9.929038E-01  -53.486  1.773994E-02   36.044
   0.789500000  1.561717E-02   -6.425  9.927367E-01  -59.093  9.924124E-01  -59.056  1.794029E-02   33.069
   0.864450000  1.523386E-02  -13.911  9.922792E-01  -64.692  9.920617E-01  -64.645  1.794274E-02   30.546
   0.939400000  1.339653E-02  -22.127  9.924807E-01  -70.218  9.924674E-01  -70.221  1.773653E-02   24.844
   1.014350000  1.396622E-02  -26.716  9.914483E-01  -75.820  9.913491E-01  -75.807  1.720445E-02   25.331
   1.089300000  1.279377E-02  -33.155  9.918392E-01  -81.402  9.916220E-01  -81.417  1.667531E-02   23.423
   1.164250000  1.081655E-02  -32.339  9.911577E-01  -86.961  9.912736E-01  -86.962  1.531949E-02   19.679
   1.239200000  1.023665E-02  -45.405  9.905816E-01  -92.550  9.910081E-01  -92.579  1.460173E-02   19.938
   1.314150000  8.607136E-03  -51.731  9.903048E-01  -98.136  9.909867E-01  -98.137  1.346331E-02   19.146
   1.389100000  7.024721E-03  -57.557  9.901885E-01 -103.739  9.905925E-01 -103.732  1.219948E-02   17.919
   1.464050000  4.412615E-03  -61.259  9.903789E-01 -109.326  9.905320E-01 -109.316  1.078883E-02   14.628
   1.539000000  3.032865E-03  -70.670  9.897402E-01 -114.921  9.905176E-01 -114.899  9.492833E-03   19.283
   1.613950000  1.227117E-03  -91.583  9.893449E-01 -120.529  9.902067E-01 -120.462  8.394610E-03   24.986
   1.688900000  6.800429E-04   97.406  9.901611E-01 -126.111  9.898502E-01 -126.075  6.760978E-03   32.296
   1.763850000  2.716650E-03   90.627  9.895970E-01 -131.646  9.898777E-01 -131.651  5.836354E-03   42.792
   1.838800000  4.765972E-03   85.109  9.893700E-01 -137.261  9.895833E-01 -137.211  5.483418E-03   58.805
   1.913750000  6.555980E-03   77.540  9.899393E-01 -142.844  9.892884E-01 -142.799  5.604840E-03   76.739
   1.988700000  8.658142E-03   69.392  9.893081E-01 -148.363  9.892076E-01 -148.399  6.046754E-03   91.319
   2.063650000  1.016689E-02   64.985  9.890328E-01 -154.006  9.891234E-01 -153.962  7.525520E-03   97.606
   2.138600000  1.206550E-02   57.832  9.891643E-01 -159.540  9.886598E-01 -159.563  8.705729E-03  102.283
   2.213550000  1.360950E-02   51.406  9.886293E-01 -165.133  9.885957E-01 -165.124  9.766007E-03  104.761
   2.288500000  1.510738E-02   44.084  9.883479E-01 -170.715  9.884157E-01 -170.724  1.107651E-02  105.578
   2.363450000  1.631466E-02   37.174  9.880253E-01 -176.295  9.882221E-01 -176.297  1.223765E-02  105.195
   2.438400000  1.723520E-02   31.033  9.881175E-01  178.116  9.884023E-01  178.112  1.342279E-02  104.161
   2.513350000  1.803264E-02   26.584  9.882290E-01  172.523  9.881607E-01  172.556  1.513876E-02  102.698
   2.588300000  1.854070E-02   16.977  9.878288E-01  166.945  9.877942E-01  166.958  1.483569E-02  100.875
   2.663250000  1.873968E-02   10.076  9.879993E-01  161.396  9.877605E-01  161.374  1.528043E-02   98.465
   2.738200000  1.871311E-02    2.881  9.872775E-01  155.799  9.876335E-01  155.781  1.561650E-02   96.289
   2.813150000  1.853887E-02   -4.126  9.872527E-01  150.210  9.874460E-01  150.222  1.565078E-02   93.631
   2.888100000  1.814765E-02  -10.970  9.879164E-01  144.669  9.871864E-01  144.617  1.544340E-02   90.813
   2.963050000  1.751321E-02  -19.127  9.859763E-01  139.074  9.874356E-01  139.053  1.530688E-02   87.647
   3.038000000  1.651333E-02  -29.652  9.878605E-01  133.453  9.870239E-01  133.498  1.441270E-02   82.723
   3.112950000  1.504518E-02  -32.764  9.859831E-01  127.927  9.870377E-01  127.889  1.401477E-02   83.473
   3.187900000  1.371841E-02  -41.809  9.870888E-01  122.280  9.865621E-01  122.322  1.309463E-02   79.404
   3.262850000  1.214108E-02  -50.033  9.863899E-01  116.712  9.868145E-01  116.727  1.182892E-02   76.892
   3.337800000  1.026575E-02  -58.049  9.866533E-01  111.148  9.863172E-01  111.145  1.069863E-02   74.428
   3.412750000  8.502036E-03  -70.908  9.870600E-01  105.533  9.868619E-01  105.571  9.084667E-03   72.811
   3.487700000  7.243305E-03  -54.392  9.870021E-01  100.016  9.861208E-01   99.978  1.003281E-02   83.030
   3.562650000  4.803156E-03 -104.700  9.858686E-01   94.376  9.865423E-01   94.392  5.617606E-03   75.892
   3.637600000  2.974946E-03 -128.991  9.878542E-01   88.829  9.861484E-01   88.821  4.888551E-03   81.758
   3.712550000  3.179151E-03 -178.389  9.862782E-01   83.322  9.861703E-01   83.234  3.471943E-03   88.081
   3.787500000  4.334459E-03  146.345  9.859542E-01   77.706  9.854374E-01   77.673  2.328187E-03  122.418
   3.862450000  6.147886E-03  122.719  9.857258E-01   72.041  9.861857E-01   72.077  2.841155E-03  152.067
   3.937400000  7.826704E-03  110.266  9.859214E-01   66.600  9.856064E-01   66.494  3.994295E-03  173.483
   4.012350000  4.182832E-03   83.768  9.852031E-01   60.852  9.859883E-01   60.961  3.312984E-03 -162.930
   4.087300000  7.955827E-03   98.634  9.852357E-01   55.406  9.853123E-01   55.318  4.721613E-03 -169.006
   4.162250000  1.008761E-02   77.034  9.850981E-01   49.693  9.855807E-01   49.749  7.263334E-03  177.652
   4.237200000  1.348185E-02   71.729  9.860373E-01   44.210  9.855748E-01   44.179  8.577823E-03  179.030
   4.312150000  1.556310E-02   64.562  9.844418E-01   38.604  9.853196E-01   38.633  1.007394E-02  174.955
   4.387100000  1.716544E-02   58.449  9.853628E-01   32.991  9.853041E-01   33.011  1.106962E-02  168.916
   4.462050000  1.800727E-02   52.670  9.858879E-01   27.443  9.852962E-01   27.443  1.241033E-02  162.409
   4.537000000  2.072381E-02   46.671  9.851639E-01   21.905  9.850422E-01   21.872  1.212179E-02  161.749
   4.611950000  2.422381E-02   42.496  9.848556E-01   16.286  9.852431E-01   16.298  1.018067E-02  162.216
   4.686900000  1.935084E-02   38.802  9.849134E-01   10.738  9.850412E-01   10.724  1.476170E-02  141.457
   4.761850000  2.017652E-02   33.111  9.848714E-01    5.151  9.851703E-01    5.119  1.457544E-02  136.469
   4.836800000  1.983492E-02   29.552  9.843213E-01   -0.428  9.846720E-01   -0.449  1.492860E-02  128.388
   4.911750000  1.968524E-02   26.547  9.842539E-01   -5.992  9.849629E-01   -6.032  1.528758E-02  120.588
   4.986700000  1.913877E-02   24.125  9.846684E-01  -11.600  9.847688E-01  -11.589  1.505785E-02  111.799
   5.061650000  1.928502E-02   19.125  9.844141E-01  -17.145  9.849222E-01  -17.182  1.432071E-02  103.168
   5.136600000  1.770499E-02   11.819  9.850433E-01  -22.750  9.849468E-01  -22.722  1.217248E-02   99.225
   5.211550000  1.874910E-02   25.738  9.844535E-01  -28.289  9.852296E-01  -28.318  1.745542E-02   79.376
   5.286500000  1.848286E-02   23.751  9.838207E-01  -33.895  9.846055E-01  -33.882  1.680388E-02   69.781
   5.361450000  1.895698E-02   24.195  9.849597E-01  -39.520  9.847840E-01  -39.507  1.733140E-02   58.545
   5.436400000  1.931257E-02   24.374  9.842673E-01  -44.997  9.851181E-01  -45.065  1.849804E-02   47.260
   5.511350000  2.008025E-02   25.801  9.831042E-01  -50.667  9.845646E-01  -50.611  1.936818E-02   37.872
   5.586300000  1.967801E-02   23.695  9.846374E-01  -56.258  9.844913E-01  -56.230  1.964774E-02   25.246
   5.661250000  1.933292E-02   30.816  9.839583E-01  -61.717  9.846510E-01  -61.814  1.812136E-02   17.194
   5.736200000  2.270628E-02   23.020  9.830879E-01  -67.427  9.845016E-01  -67.392  2.341192E-02   10.962
   5.811150000  2.273118E-02   22.939  9.838738E-01  -73.030  9.845288E-01  -72.963  2.387055E-02    1.726
   5.886100000  2.350663E-02   22.012  9.848619E-01  -78.529  9.840612E-01  -78.532  2.502347E-02   -5.611
   5.961050000  2.412583E-02   20.075  9.828787E-01  -84.146  9.843303E-01  -84.120  2.579396E-02  -13.043
   6.036000000  2.410721E-02   16.734  9.843635E-01  -89.664  9.847689E-01  -89.700  2.772467E-02  -21.493
   6.110950000  2.442174E-02   14.884  9.836058E-01  -95.348  9.845068E-01  -95.269  2.754979E-02  -29.111
   6.185900000  2.725955E-02   12.037  9.845283E-01 -100.722  9.838466E-01 -100.873  2.460506E-02  -34.036
   6.260850000  2.532585E-02    4.668  9.831931E-01 -106.392  9.841130E-01 -106.454  2.810503E-02  -37.988
   6.335800000  2.530340E-02    1.401  9.825883E-01 -111.993  9.843380E-01 -112.023  2.730603E-02  -44.728
   6.410750000  2.521143E-02   -2.362  9.850848E-01 -117.577  9.839850E-01 -117.581  2.711424E-02  -50.996
   6.485700000  2.451528E-02   -6.600  9.821433E-01 -123.047  9.834617E-01 -123.200  2.585256E-02  -56.460
   6.560650000  2.500555E-02  -18.927  9.828245E-01 -128.785  9.836393E-01 -128.737  2.142921E-02  -55.754
   6.635600000  2.204157E-02  -13.186  9.844056E-01 -134.302  9.835981E-01 -134.323  2.376813E-02  -67.877
   6.710550000  2.103810E-02  -23.172  9.831341E-01 -139.876  9.839310E-01 -139.906  1.974493E-02  -69.892
   6.785500000  1.860379E-02  -21.874  9.832181E-01 -145.476  9.836464E-01 -145.473  1.987520E-02  -75.056
   6.860450000  1.700803E-02  -26.375  9.840408E-01 -151.086  9.835226E-01 -151.062  1.709128E-02  -78.295
   6.935400000  1.505387E-02  -29.899  9.837924E-01 -156.615  9.833304E-01 -156.625  1.434002E-02  -81.837
   7.010350000  1.287056E-02  -31.592  9.842316E-01 -162.228  9.835925E-01 -162.204  1.142787E-02  -82.941
   7.085300000  1.035912E-02  -28.414  9.834637E-01 -167.776  9.836519E-01 -167.793  9.018543E-03  -79.504
   7.160250000  8.779418E-03  -26.313  9.841114E-01 -173.387  9.837874E-01 -173.388  5.912182E-03  -76.825
   7.235200000  4.633347E-03  -24.717  9.836364E-01 -178.958  9.836871E-01 -178.953  3.304330E-03   -3.059
   7.310150000  5.237719E-03   -0.186  9.834966E-01  175.436  9.837599E-01  175.432  3.566827E-03    4.760
   7.385100000  4.756575E-03   33.073  9.837491E-01  169.890  9.833900E-01  169.852  6.994731E-03   34.610
   7.460050000  7.013068E-03   54.934  9.830014E-01  164.280  9.837130E-01  164.265  1.059697E-02   37.972
   7.535000000  9.584117E-03   63.496  9.842440E-01  158.689  9.832350E-01  158.716  1.447013E-02   39.255
   7.609950000  1.281815E-02   55.179  9.831145E-01  153.146  9.833641E-01  153.089  1.702291E-02   32.215
   7.684900000  1.582518E-02   57.380  9.829559E-01  147.550  9.832875E-01  147.521  2.082255E-02   31.020
   7.759850000  2.102065E-02   56.331  9.832306E-01  141.933  9.834687E-01  141.946  2.734174E-02   29.016
   7.834800000  2.212626E-02   53.222  9.833584E-01  136.371  9.830831E-01  136.376  2.737136E-02   26.970
   7.909750000  2.610651E-02   48.226  9.826974E-01  130.840  9.829261E-01  130.738  3.178019E-02   23.067
   7.984700000  2.946461E-02   42.874  9.817882E-01  125.206  9.829902E-01  125.204  3.462107E-02   19.710
   8.059650000  3.240205E-02   38.330  9.824882E-01  119.614  9.830381E-01  119.617  3.707431E-02   15.981
   8.134600000  3.395343E-02   29.678  9.833502E-01  114.052  9.824315E-01  114.025  3.902649E-02    9.769
   8.209550000  3.700461E-02   24.867  9.812091E-01  108.534  9.827174E-01  108.435  4.093537E-02    6.826
   8.284500000  3.846065E-02   18.329  9.822584E-01  102.805  9.827983E-01  102.891  4.311515E-02    1.995
   8.359450000  4.121596E-02   13.909  9.839912E-01   97.291  9.825065E-01   97.297  4.367507E-02   -0.028
   8.434400000  4.290844E-02    7.002  9.821640E-01   91.850  9.823743E-01   91.717  4.516406E-02   -4.175
   8.509350000  4.329011E-02    0.156  9.809977E-01   86.142  9.824406E-01   86.148  4.610813E-02   -8.884
   8.584300000  4.352577E-02   -6.743  9.844266E-01   80.636  9.822048E-01   80.577  4.674023E-02  -13.312
   8.659250000  4.295052E-02  -12.359  9.819523E-01   75.102  9.827686E-01   75.014  4.536981E-02  -17.887
   8.734200000  4.369440E-02  -19.144  9.830950E-01   69.562  9.819378E-01   69.452  4.486432E-02  -20.643
   8.809150000  4.263428E-02  -24.132  9.813325E-01   63.853  9.827077E-01   63.812  4.329093E-02  -24.910
   8.884100000  4.316440E-02  -30.844  9.836502E-01   58.363  9.826364E-01   58.282  4.158846E-02  -27.321
   8.959050000  4.143530E-02  -38.134  9.818334E-01   52.793  9.827536E-01   52.714  4.034320E-02  -30.646
   9.034000000  3.921193E-02  -44.853  9.816309E-01   47.146  9.824702E-01   47.115  3.821565E-02  -34.955
   9.108950000  4.041683E-02  -49.964  9.826618E-01   41.539  9.829458E-01   41.547  3.371560E-02  -35.950
   9.183900000  3.368924E-02  -57.113  9.830032E-01   36.034  9.831732E-01   35.954  3.330237E-02  -43.852
   9.258850000  3.104862E-02  -63.909  9.832072E-01   30.439  9.826868E-01   30.394  3.044025E-02  -46.523
   9.333800000  2.972718E-02  -69.938  9.827909E-01   24.829  9.831320E-01   24.802  2.575062E-02  -48.875
   9.408750000  2.624423E-02  -79.263  9.841849E-01   19.243  9.830432E-01   19.225  2.249323E-02  -48.230
   9.483700000  2.286854E-02  -86.752  9.833373E-01   13.692  9.831705E-01   13.648  1.921396E-02  -49.448
   9.558650000  1.886517E-02  -94.424  9.836222E-01    8.108  9.832025E-01    8.063  1.574506E-02  -50.181
   9.633600000  1.698175E-02 -110.556  9.837619E-01    2.492  9.830871E-01    2.493  1.142663E-02  -30.719
   9.708550000  1.069228E-02 -109.698  9.832513E-01   -3.064  9.831756E-01   -3.109  9.239832E-03  -47.538
   9.783500000  7.804031E-03 -126.036  9.836141E-01   -8.671  9.831787E-01   -8.679  6.616095E-03  -22.549
   9.858450000  5.879580E-03 -160.129  9.838586E-01  -14.239  9.830558E-01  -14.288  6.786212E-03   21.112
   9.933400000  5.060666E-03  139.682  9.833214E-01  -19.835  9.833258E-01  -19.854  9.440645E-03   32.020
  10.008350000  7.018692E-03  103.473  9.833573E-01  -25.443  9.829481E-01  -25.431  1.245668E-02   43.893
  10.083300000  1.015265E-02   82.334  9.843704E-01  -30.989  9.828326E-01  -31.011  1.502250E-02   47.041
  10.158250000  1.406722E-02   64.666  9.832878E-01  -36.561  9.834807E-01  -36.630  1.788805E-02   45.834
  10.233200000  1.652418E-02   55.185  9.829649E-01  -42.190  9.831629E-01  -42.190  2.007607E-02   46.472
  10.308150000  2.091111E-02   49.496  9.836517E-01  -47.770  9.830668E-01  -47.775  2.426212E-02   43.636
  10.383100000  2.451332E-02   43.473  9.831303E-01  -53.333  9.827243E-01  -53.393  2.794433E-02   40.728
  10.458050000  2.823858E-02   33.843  9.818674E-01  -58.927  9.829199E-01  -58.967  3.029394E-02   34.396
  10.533000000  3.059184E-02   27.962  9.823051E-01  -64.553  9.828700E-01  -64.531  3.234162E-02   32.014
  10.607950000  3.312786E-02   20.926  9.830247E-01  -70.159  9.814852E-01  -70.074  3.388332E-02   27.307
  10.682900000  3.446446E-02   12.434  9.829743E-01  -75.704  9.825207E-01  -75.756  3.452216E-02   21.716
  10.757850000  3.642683E-02    6.712  9.816031E-01  -81.341  9.822308E-01  -81.293  3.575191E-02   17.426
  10.832800000  3.904748E-02    0.166  9.839721E-01  -86.917  9.825287E-01  -86.851  3.775498E-02   11.642
  10.907750000  4.146151E-02   -6.150  9.824494E-01  -92.398  9.813084E-01  -92.442  3.906480E-02    7.523
  10.982700000  4.230689E-02  -12.963  9.824474E-01  -98.047  9.811553E-01  -98.054  3.893264E-02    0.159
  11.057650000  4.282782E-02  -18.451  9.819988E-01 -103.570  9.814501E-01 -103.616  3.874559E-02   -3.574
  11.132600000  4.320531E-02  -24.624  9.831481E-01 -109.131  9.820983E-01 -109.153  3.786210E-02   -8.926
  11.207550000  4.207679E-02  -31.494  9.815029E-01 -114.673  9.809253E-01 -114.765  3.669882E-02  -16.984
  11.282500000  4.214913E-02  -37.677  9.811555E-01 -120.320  9.817586E-01 -120.362  3.592622E-02  -21.371
  11.357450000  4.139078E-02  -41.877  9.817546E-01 -125.931  9.813901E-01 -125.913  3.362199E-02  -27.927
  11.432400000  4.115242E-02  -51.829  9.816584E-01 -131.437  9.819929E-01 -131.462  3.476650E-02  -33.196
  11.507350000  3.944717E-02  -58.249  9.812251E-01 -137.073  9.805198E-01 -137.068  3.271506E-02  -40.442
  11.582300000  3.833982E-02  -64.080  9.813634E-01 -142.661  9.819316E-01 -142.676  3.046976E-02  -45.772
  11.657250000  3.674244E-02  -70.592  9.826604E-01 -148.239  9.813354E-01 -148.213  2.837509E-02  -51.636
  11.732200000  3.318406E-02  -77.416  9.818685E-01 -153.755  9.819740E-01 -153.813  2.654191E-02  -61.471
  11.807150000  3.126812E-02  -84.084  9.820415E-01 -159.391  9.812642E-01 -159.394  2.477866E-02  -66.865
  11.882100000  3.069156E-02  -90.048  9.829440E-01 -164.981  9.815581E-01 -165.012  2.008777E-02  -71.783
  11.957050000  2.517071E-02 -100.472  9.823899E-01 -170.543  9.816278E-01 -170.556  2.098816E-02  -80.170
  12.032000000  2.233335E-02 -107.266  9.823796E-01 -176.117  9.824153E-01 -176.169  1.802772E-02  -88.328
  12.106950000  2.018089E-02 -116.087  9.821634E-01  178.273  9.819446E-01  178.251  1.505538E-02  -94.248
  12.181900000  1.714626E-02 -126.925  9.825884E-01  172.684  9.822391E-01  172.666  1.260466E-02 -102.114
  12.256850000  1.279211E-02 -134.785  9.825120E-01  167.076  9.823844E-01  167.071  1.147336E-02 -112.076
  12.331800000  1.045531E-02 -152.039  9.823805E-01  161.529  9.819646E-01  161.465  8.400371E-03 -123.153
  12.406750000  9.844127E-03  179.611  9.828788E-01  155.938  9.822445E-01  155.926  3.750276E-03 -127.707
  12.481700000  5.506360E-03  151.795  9.820102E-01  150.317  9.807653E-01  150.286  3.964453E-03 -148.851
  12.556650000  6.665310E-03  121.318  9.832030E-01  144.744  9.820242E-01  144.700  2.291099E-03  144.907
  12.631600000  8.633897E-03   91.809  9.820619E-01  139.195  9.812424E-01  139.061  3.302669E-03   76.517
  12.706550000  1.179962E-02   73.171  9.814847E-01  133.588  9.821531E-01  133.587  6.145611E-03   53.260
  12.781500000  1.471474E-02   60.536  9.817618E-01  127.951  9.811234E-01  127.916  8.842706E-03   42.156
  12.856450000  1.761271E-02   45.432  9.819846E-01  122.439  9.805177E-01  122.402  1.062040E-02   32.743
  12.931400000  2.237698E-02   36.798  9.794406E-01  116.801  9.817863E-01  116.690  1.535564E-02   19.738
  13.006350000  2.235543E-02   28.006  9.808853E-01  111.195  9.818247E-01  111.286  1.555716E-02   19.005
  13.081300000  2.603514E-02   23.712  9.807522E-01  105.589  9.796160E-01  105.570  1.949023E-02   13.255
  13.156250000  2.888489E-02   15.481  9.807694E-01  100.048  9.799445E-01  100.027  2.233198E-02    5.239
  13.231200000  3.128265E-02    7.441  9.803135E-01   94.399  9.813998E-01   94.419  2.490924E-02   -2.436
  13.306150000  3.312599E-02   -1.682  9.806371E-01   88.905  9.790242E-01   88.941  2.673849E-02  -10.274
  13.381100000  3.493047E-02   -8.355  9.805272E-01   83.302  9.799554E-01   83.242  2.929163E-02  -15.633
  13.456050000  3.624470E-02  -17.566  9.792846E-01   77.764  9.789057E-01   77.719  3.232605E-02  -24.486
  13.531000000  3.738603E-02  -19.406  9.800986E-01   72.153  9.806982E-01   72.123  3.219274E-02  -25.788
  13.605950000  3.910092E-02  -26.915  9.794027E-01   66.616  9.788651E-01   66.619  3.418757E-02  -30.103
  13.680900000  4.077395E-02  -33.836  9.793764E-01   61.079  9.790501E-01   60.994  3.629042E-02  -36.099
