! 3/28/2024 3:55:39 PM
! D:\MS4647AVNA\292M185F 240225XX\24022512.S2P
! CHANNEL.1
! TR.MEASUREMENT
! CORRECTED.DATA
# GHZ S RI R 50.0
! FREQ.GHZ         S11RE         S11IM         S21RE         S21IM         S12RE         S12IM         S22RE         S22IM         
!; PortSelection: Port_12
   0.040000000     0.0033207    0.0011236    -0.0000103    0.0000034    -0.0000126    0.0000094     1.0019400   -0.0020308 
   0.080000000     0.0042019    0.0005271     0.0000053    0.0000115     0.0000100    0.0000195     1.0007900   -0.0033157 
   0.120000000     0.0048850    0.0004650     0.0000222   -0.0000060    -0.0000024   -0.0000058     1.0015560   -0.0051539 
   0.160000000     0.0046508    0.0003398     0.0000080    0.0000040     0.0000045    0.0000017     1.0008160   -0.0062683 
   0.200000000     0.0048275   -0.0007597    -0.0000277   -0.0000241     0.0000154    0.0000027     1.0002040   -0.0076628 
   0.240000000     0.0057417   -0.0006625    -0.0000154   -0.0000085     0.0000261   -0.0000047     1.0007250   -0.0080764 
   0.280000000     0.0051390   -0.0001157    -0.0000216    0.0000266     0.0000093    0.0000028     1.0010150   -0.0083240 
   0.320000000     0.0044851   -0.0014777    -0.0000053    0.0000221    -0.0000024   -0.0000017     1.0005280   -0.0107387 
   0.360000000     0.0057373   -0.0023356    -0.0000111    0.0000037     0.0000148    0.0000110     1.0003500   -0.0123156 
   0.400000000     0.0059319   -0.0013682    -0.0000034   -0.0000120     0.0000129    0.0000023     1.0012110   -0.0118494 
   0.440000000     0.0047280   -0.0019070    -0.0000173   -0.0000130     0.0000098    0.0000033     1.0003800   -0.0152819 
   0.480000000     0.0051284   -0.0034956    -0.0000229    0.0000053     0.0000032    0.0000098     1.0003980   -0.0170355 
   0.520000000     0.0065562   -0.0034622     0.0000193    0.0000061     0.0000077    0.0000085     1.0019440   -0.0161350 
   0.560000000     0.0057205   -0.0023817     0.0000611    0.0000159    -0.0000003    0.0000331     1.0026720   -0.0184805 
   0.600000000     0.0040644   -0.0039028    -0.0000374   -0.0000582     0.0000138    0.0000023     1.0011990   -0.0215270 
   0.640000000     0.0066202   -0.0058319    -0.0000213    0.0000146     0.0000099   -0.0000076     1.0016270   -0.0203958 
   0.680000000     0.0069591   -0.0026014     0.0000284   -0.0000059     0.0000734    0.0000152     1.0025260   -0.0189665 
   0.720000000     0.0028069   -0.0039425     0.0000101   -0.0000078     0.0000008   -0.0000600     1.0001200   -0.0237875 
   0.760000000     0.0047593   -0.0079384     0.0000190    0.0000059    -0.0000066    0.0000086     1.0006660   -0.0253999 
   0.800000000     0.0075420   -0.0051753     0.0000106   -0.0000415    -0.0000039   -0.0000054     1.0018990   -0.0239008 
   0.840000000     0.0031570   -0.0036405    -0.0000030    0.0000542    -0.0000214    0.0000311     0.9995343   -0.0273683 
   0.880000000     0.0025829   -0.0087409     0.0000499    0.0000044    -0.0000114    0.0000079     1.0000160   -0.0308575 
   0.920000000     0.0068866   -0.0079425    -0.0000126    0.0000079     0.0000308   -0.0000026     1.0007710   -0.0282618 
   0.960000000     0.0041857   -0.0044831    -0.0000214   -0.0000295    -0.0000212   -0.0000032     0.9995489   -0.0299726 
   1.000000000     0.0009111   -0.0083821    -0.0000259   -0.0000005    -0.0000048   -0.0000070     0.9993026   -0.0357160 
   1.040000000     0.0050360   -0.0104261    -0.0000192    0.0000289     0.0000080   -0.0000262     1.0013690   -0.0338272 
   1.080000000     0.0050945   -0.0057662     0.0000040    0.0000038     0.0000015    0.0000316     1.0003380   -0.0324813 
   1.120000000    -0.0000155   -0.0073556    -0.0000106    0.0000226     0.0000237    0.0000044     0.9985685   -0.0392272 
   1.160000000     0.0022005   -0.0117984    -0.0000232    0.0000239    -0.0000184   -0.0000282     1.0011600   -0.0408031 
   1.200000000     0.0049067   -0.0086922     0.0000254   -0.0000302    -0.0000075    0.0000010     1.0010620   -0.0364917 
   1.240000000     0.0006624   -0.0067871    -0.0000216   -0.0000106    -0.0000206    0.0000076     0.9977164   -0.0406458 
   1.280000000    -0.0008224   -0.0111471     0.0000192   -0.0000139     0.0000004   -0.0000281     0.9989099   -0.0449262 
   1.320000000     0.0028538   -0.0115948    -0.0000035   -0.0000104     0.0000126    0.0000284     1.0003540   -0.0423488 
   1.360000000     0.0019087   -0.0082424    -0.0000248    0.0000299     0.0000179   -0.0000107     0.9993722   -0.0436647 
   1.400000000    -0.0012254   -0.0095089     0.0000236    0.0000315    -0.0000007    0.0000110     0.9988495   -0.0477817 
   1.440000000    -0.0001711   -0.0117212    -0.0000544    0.0000215     0.0000030    0.0000496     0.9992270   -0.0477097 
   1.480000000     0.0007539   -0.0103060    -0.0000182   -0.0000174    -0.0000286   -0.0000124     0.9995567   -0.0470596 
   1.520000000    -0.0013738   -0.0098062    -0.0000023    0.0000268     0.0000062    0.0000015     0.9988731   -0.0510425 
   1.560000000    -0.0018075   -0.0116352     0.0000067    0.0000301     0.0000160   -0.0000047     0.9986705   -0.0529279 
   1.600000000    -0.0007091   -0.0112466     0.0000053    0.0000267     0.0000149   -0.0000453     0.9995233   -0.0517686 
   1.640000000    -0.0020431   -0.0100261     0.0000129   -0.0000074    -0.0000118   -0.0000473     0.9988360   -0.0532832 
   1.680000000    -0.0033871   -0.0114396    -0.0000327    0.0000017     0.0000026    0.0000285     0.9983301   -0.0567383 
   1.720000000    -0.0021525   -0.0118384    -0.0000373    0.0000143     0.0000056   -0.0000214     0.9989796   -0.0561234 
   1.760000000    -0.0029769   -0.0101634    -0.0000256    0.0000238     0.0000137   -0.0000141     0.9987219   -0.0566986 
   1.800000000    -0.0051912   -0.0113849     0.0000137    0.0000185    -0.0000012    0.0000011     0.9984671   -0.0608098 
   1.840000000    -0.0036501   -0.0127779     0.0000113    0.0000601     0.0000072    0.0000089     0.9988250   -0.0601911 
   1.880000000    -0.0034197   -0.0102929     0.0000454    0.0000050    -0.0000022    0.0000033     0.9981819   -0.0588790 
   1.920000000    -0.0064259   -0.0106233    -0.0000697    0.0000066    -0.0000299    0.0000083     0.9984040   -0.0637183 
   1.960000000    -0.0053395   -0.0133054     0.0000291    0.0000695    -0.0000182   -0.0000068     0.9992516   -0.0653053 
   2.000000000    -0.0017986   -0.0111150     0.0000234   -0.0000504     0.0000069    0.0000217     0.9973782   -0.0644766 
   2.040000000    -0.0062248   -0.0102803    -0.0000430    0.0000137    -0.0000189    0.0000181     0.9974878   -0.0678556 
   2.080000000    -0.0066584   -0.0149266    -0.0000096    0.0000023    -0.0000109    0.0000448     0.9994609   -0.0696529 
   2.120000000    -0.0030603   -0.0129798     0.0000400   -0.0000038    -0.0000598    0.0000146     0.9977037   -0.0697760 
   2.160000000    -0.0070721   -0.0098678     0.0000659   -0.0000582    -0.0000582    0.0000454     0.9975279   -0.0734734 
   2.200000000    -0.0094196   -0.0147084    -0.0000498   -0.0000216    -0.0000288   -0.0000097     0.9989820   -0.0748609 
   2.240000000    -0.0040124   -0.0150302    -0.0000227   -0.0000328     0.0000182   -0.0000075     0.9970017   -0.0723137 
   2.280000000    -0.0057956   -0.0093912    -0.0000158   -0.0000489     0.0000044    0.0000302     0.9970357   -0.0752064 
   2.320000000    -0.0106097   -0.0135681     0.0000507   -0.0001141     0.0000174   -0.0000005     1.0042980   -0.0753353 
   2.360000000    -0.0030622   -0.0159290     0.0000344    0.0000503    -0.0000014   -0.0000791     1.0011630   -0.0732643 
   2.400000000    -0.0019751   -0.0048133     0.0000671    0.0000309     0.0000233    0.0000389     0.9957848   -0.0769475 
   2.440000000    -0.0150761   -0.0058440    -0.0000418    0.0000064     0.0000418    0.0000453     1.0026900   -0.0823662 
   2.480000000    -0.0102418   -0.0187373     0.0000473    0.0000800     0.0000444    0.0000177     1.0050390   -0.0744365 
   2.520000000    -0.0082117   -0.0109095    -0.0000196   -0.0000315     0.0000568   -0.0000179     0.9932690   -0.0887591 
   2.560000000    -0.0080224   -0.0098169    -0.0000182    0.0000041     0.0000602   -0.0000042     0.9941744   -0.0876084 
   2.600000000    -0.0088019   -0.0094401    -0.0000526    0.0000341    -0.0000483   -0.0000379     0.9937593   -0.0906150 
   2.640000000    -0.0088753   -0.0099555    -0.0000192   -0.0000314     0.0000902   -0.0000315     0.9936082   -0.0900784 
   2.680000000    -0.0084905   -0.0094914    -0.0000222   -0.0000209    -0.0000353   -0.0000017     0.9936661   -0.0916645 
   2.720000000    -0.0091723   -0.0087339    -0.0000075    0.0000018     0.0000001    0.0000097     0.9943104   -0.0926223 
   2.760000000    -0.0099571   -0.0091548     0.0000197    0.0000225     0.0000016    0.0000135     0.9948517   -0.0952549 
   2.800000000    -0.0096040   -0.0092914     0.0000039   -0.0000316    -0.0000034    0.0000156     0.9931887   -0.0960324 
   2.840000000    -0.0099208   -0.0084359    -0.0000131   -0.0000278    -0.0000152   -0.0000332     0.9936578   -0.0971995 
   2.880000000    -0.0105280   -0.0081141    -0.0000144    0.0000067     0.0000411    0.0000307     0.9945578   -0.0997190 
   2.920000000    -0.0110635   -0.0083377    -0.0000109   -0.0000169    -0.0000103    0.0000127     0.9942134   -0.1015333 
   2.960000000    -0.0109883   -0.0085097     0.0000288    0.0000082     0.0000032    0.0000410     0.9935008   -0.1031324 
   3.000000000    -0.0112688   -0.0078887    -0.0000142    0.0000106    -0.0000084   -0.0000013     0.9949883   -0.1038900 
   3.040000000    -0.0118881   -0.0070670     0.0000116   -0.0000235     0.0000073   -0.0000363     0.9941877   -0.1072211 
   3.080000000    -0.0124329   -0.0074187    -0.0000101   -0.0000027    -0.0000174    0.0000440     0.9922390   -0.1066295 
   3.120000000    -0.0117963   -0.0077438    -0.0000039    0.0000189    -0.0000284    0.0000116     0.9941226   -0.1082878 
   3.160000000    -0.0119009   -0.0065979    -0.0000519   -0.0000264    -0.0000133    0.0000217     0.9942732   -0.1114846 
   3.200000000    -0.0133250   -0.0060078     0.0000121    0.0000024    -0.0000257    0.0000060     0.9928202   -0.1118879 
   3.240000000    -0.0134749   -0.0066858     0.0000308    0.0000327     0.0000075    0.0000404     0.9922109   -0.1122705 
   3.280000000    -0.0125718   -0.0065507     0.0000078   -0.0000219     0.0000232    0.0000140     0.9938456   -0.1141414 
   3.320000000    -0.0128451   -0.0051801     0.0000195    0.0000031    -0.0000085    0.0000355     0.9917970   -0.1171112 
   3.360000000    -0.0143216   -0.0049980    -0.0000426   -0.0000344    -0.0000306    0.0000079     0.9919404   -0.1157053 
   3.400000000    -0.0142004   -0.0058737     0.0000364   -0.0000304    -0.0000416    0.0000114     0.9932479   -0.1187688 
   3.440000000    -0.0132657   -0.0051479     0.0000006    0.0000054     0.0000516   -0.0000479     0.9920716   -0.1203490 
   3.480000000    -0.0140851   -0.0037379    -0.0000082    0.0000098    -0.0000257   -0.0000346     0.9915492   -0.1217740 
   3.520000000    -0.0153531   -0.0040278     0.0000037   -0.0000140    -0.0000073   -0.0000157     0.9925880   -0.1208912 
   3.560000000    -0.0148607   -0.0046281     0.0000166   -0.0000255     0.0000023    0.0000453     0.9931379   -0.1243643 
   3.600000000    -0.0141929   -0.0033201    -0.0000189    0.0000154    -0.0000366   -0.0000038     0.9908720   -0.1263669 
   3.640000000    -0.0152446   -0.0023731    -0.0000085    0.0000392    -0.0000117   -0.0000757     0.9921717   -0.1256036 
   3.680000000    -0.0161098   -0.0029821    -0.0000025   -0.0000026     0.0000027    0.0000142     0.9925441   -0.1286813 
   3.720000000    -0.0153526   -0.0029986     0.0000019    0.0000161    -0.0000192   -0.0000447     0.9908994   -0.1292999 
   3.760000000    -0.0153083   -0.0017756    -0.0000140    0.0000125    -0.0000311    0.0000308     0.9904048   -0.1307697 
   3.800000000    -0.0162871   -0.0011190    -0.0000430    0.0000187     0.0000070    0.0000172     0.9918895   -0.1319146 
   3.840000000    -0.0164856   -0.0015372     0.0000175    0.0000185    -0.0000136    0.0000308     0.9919484   -0.1346935 
   3.880000000    -0.0158671   -0.0012073     0.0000006   -0.0000020    -0.0000507    0.0000015     0.9894850   -0.1347650 
   3.920000000    -0.0160240   -0.0000760     0.0000482    0.0000237     0.0000435    0.0000149     0.9910243   -0.1366568 
   3.960000000    -0.0167744    0.0001591     0.0000033   -0.0000407     0.0000032   -0.0000028     0.9911814   -0.1384882 
   4.000000000    -0.0166351    0.0000498    -0.0000120    0.0000025     0.0000060    0.0000007     0.9895563   -0.1393084 
   4.040000000    -0.0161361    0.0005931     0.0000335   -0.0000057     0.0000071    0.0000233     0.9885659   -0.1393824 
   4.080000000    -0.0163200    0.0014417     0.0000216   -0.0000113    -0.0000285   -0.0000141     0.9902335   -0.1421337 
   4.120000000    -0.0167577    0.0016582     0.0000287    0.0000248     0.0000184    0.0000021     0.9888681   -0.1436705 
   4.160000000    -0.0165769    0.0016942     0.0000057   -0.0000113     0.0000063   -0.0000118     0.9879532   -0.1437043 
   4.200000000    -0.0162650    0.0021947    -0.0000040    0.0000000    -0.0000668    0.0000420     0.9883582   -0.1449992 
   4.240000000    -0.0163730    0.0027348    -0.0000419   -0.0000007     0.0000243   -0.0000183     0.9883702   -0.1480494 
   4.280000000    -0.0165414    0.0029638     0.0000241    0.0000457     0.0000299   -0.0000025     0.9867790   -0.1480205 
   4.320000000    -0.0163619    0.0031713     0.0000083    0.0000232     0.0000082    0.0000027     0.9878888   -0.1477210 
   4.360000000    -0.0162240    0.0035878     0.0000553    0.0000146    -0.0000249   -0.0000147     0.9883092   -0.1519698 
   4.400000000    -0.0162031    0.0039455    -0.0000121    0.0000019    -0.0000329   -0.0000191     0.9860274   -0.1523770 
   4.440000000    -0.0162384    0.0043323    -0.0000352    0.0000031    -0.0000361   -0.0000232     0.9865090   -0.1508935 
   4.480000000    -0.0162905    0.0046972    -0.0000280    0.0000009     0.0000671    0.0000202     0.9861265   -0.1528529 
   4.520000000    -0.0161163    0.0049596    -0.0000143    0.0000553    -0.0000007    0.0000106     0.9866688   -0.1560079 
   4.560000000    -0.0159345    0.0054419     0.0000278   -0.0000082     0.0000403    0.0000308     0.9856122   -0.1564992 
   4.600000000    -0.0159830    0.0060342     0.0000466   -0.0000123    -0.0000432    0.0000079     0.9875470   -0.1575768 
   4.640000000    -0.0160739    0.0064044     0.0000126   -0.0000008    -0.0000189   -0.0000116     0.9868838   -0.1597198 
   4.680000000    -0.0159986    0.0065304     0.0000193    0.0000020     0.0000117    0.0000365     0.9856762   -0.1605847 
   4.720000000    -0.0155286    0.0071392     0.0000186    0.0000028     0.0000074   -0.0000226     0.9858524   -0.1601169 
   4.760000000    -0.0157007    0.0079157    -0.0000102   -0.0000117     0.0000381   -0.0000300     0.9858819   -0.1618805 
   4.800000000    -0.0159041    0.0080134    -0.0000232    0.0000047     0.0000413    0.0000402     0.9855497   -0.1638336 
   4.840000000    -0.0153232    0.0081987     0.0000279    0.0000033     0.0000020    0.0000328     0.9847538   -0.1638494 
   4.880000000    -0.0148502    0.0092145    -0.0000253   -0.0000052     0.0000160    0.0000290     0.9851047   -0.1652298 
   4.920000000    -0.0151570    0.0100074    -0.0000065    0.0000055    -0.0000079    0.0000198     0.9843367   -0.1679386 
   4.960000000    -0.0152803    0.0100306    -0.0000080    0.0000264    -0.0000093    0.0000048     0.9835449   -0.1672964 
   5.000000000    -0.0144587    0.0103040    -0.0000036    0.0000239    -0.0000233   -0.0000039     0.9838666   -0.1682406 
   5.040000000    -0.0139100    0.0115844     0.0000563   -0.0000053     0.0000164   -0.0000882     0.9827158   -0.1704748 
   5.080000000    -0.0144399    0.0123265     0.0000527   -0.0000359     0.0000066    0.0000109     0.9819759   -0.1709330 
   5.120000000    -0.0142735    0.0120360     0.0000057    0.0000151    -0.0000155   -0.0000371     0.9831972   -0.1715420 
   5.160000000    -0.0130405    0.0126783     0.0000223    0.0000312    -0.0000555   -0.0000118     0.9827343   -0.1744537 
   5.200000000    -0.0128117    0.0141162     0.0000029   -0.0000221     0.0000070   -0.0000212     0.9822866   -0.1755115 
   5.240000000    -0.0133820    0.0142704     0.0000239    0.0000010     0.0000214    0.0000029     0.9828753   -0.1743142 
   5.280000000    -0.0125115    0.0139822     0.0000514   -0.0000120     0.0000474   -0.0000102     0.9819351   -0.1758903 
   5.320000000    -0.0111356    0.0148784     0.0000059   -0.0000006    -0.0000100   -0.0000150     0.9815260   -0.1777201 
   5.360000000    -0.0112148    0.0161413     0.0000041   -0.0000068    -0.0000132   -0.0000045     0.9810581   -0.1788743 
   5.400000000    -0.0114813    0.0157902     0.0000291    0.0000132     0.0000176    0.0000478     0.9822324   -0.1785876 
   5.440000000    -0.0103699    0.0154266     0.0000000    0.0000115    -0.0000090    0.0000249     0.9819614   -0.1810983 
   5.480000000    -0.0091832    0.0164444    -0.0000326    0.0000187     0.0000169   -0.0000274     0.9802759   -0.1834830 
   5.520000000    -0.0095205    0.0172918     0.0000176    0.0000004    -0.0000526   -0.0000410     0.9811376   -0.1828218 
   5.560000000    -0.0095857    0.0165413     0.0000365   -0.0000029     0.0000474    0.0000205     0.9804655   -0.1834303 
   5.600000000    -0.0081165    0.0162543     0.0000180    0.0000204    -0.0000395   -0.0000072     0.9786170   -0.1861248 
   5.640000000    -0.0073655    0.0174973    -0.0000049    0.0000125     0.0000119    0.0000073     0.9793352   -0.1879068 
   5.680000000    -0.0078350    0.0176971    -0.0000015    0.0000244    -0.0000051   -0.0000480     0.9799577   -0.1873412 
   5.720000000    -0.0074864    0.0169231     0.0000101    0.0000076    -0.0000175   -0.0000384     0.9790376   -0.1895560 
   5.760000000    -0.0061792    0.0171022     0.0000427    0.0000142    -0.0000289    0.0000177     0.9777550   -0.1914430 
   5.800000000    -0.0058385    0.0180607    -0.0000054   -0.0000003     0.0000047   -0.0000172     0.9789096   -0.1920798 
   5.840000000    -0.0060725    0.0181115     0.0000187   -0.0000413    -0.0000507    0.0000099     0.9788938   -0.1932337 
   5.880000000    -0.0054551    0.0173422    -0.0000056    0.0000074     0.0000560    0.0000012     0.9765381   -0.1944434 
   5.920000000    -0.0042469    0.0176593    -0.0000317    0.0000034    -0.0000370    0.0000044     0.9768550   -0.1962121 
   5.960000000    -0.0042030    0.0184082    -0.0000158    0.0000383     0.0000698    0.0000298     0.9783263   -0.1968291 
   6.000000000    -0.0043827    0.0180785    -0.0000929   -0.0000090     0.0000715   -0.0000017     0.9773952   -0.1969065 
   6.040000000    -0.0034735    0.0175366     0.0000044   -0.0000196    -0.0000222    0.0000552     0.9755639   -0.1985779 
   6.080000000    -0.0025797    0.0180239     0.0000488    0.0000325     0.0000034   -0.0000190     0.9762439   -0.2018230 
   6.120000000    -0.0025941    0.0183516    -0.0000177   -0.0000140    -0.0000010    0.0000217     0.9762642   -0.2020308 
   6.160000000    -0.0024348    0.0179437    -0.0000173   -0.0000007     0.0000245   -0.0000058     0.9742463   -0.2015318 
   6.200000000    -0.0015576    0.0177382     0.0000001   -0.0000060    -0.0000704   -0.0000057     0.9733142   -0.2038608 
   6.240000000    -0.0009551    0.0180774    -0.0000123   -0.0000096     0.0000050    0.0000047     0.9752522   -0.2060617 
   6.280000000    -0.0010233    0.0182135     0.0000164    0.0000168     0.0000192   -0.0000096     0.9742856   -0.2058957 
