! 3/27/2024 10:27:58 AM
! D:\MS4647AVNA\292M185F 240225XX\24022511.S2P
! CHANNEL.1
! TR.MEASUREMENT
! CORRECTED.DATA
# GHZ S RI R 50.0
! FREQ.GHZ         S11RE         S11IM         S21RE         S21IM         S12RE         S12IM         S22RE         S22IM         
!; PortSelection: Port_12
   0.040000000     0.0033932    0.0012645    -0.0000118   -0.0000010    -0.0000002    0.0000133     1.0017390   -0.0023028 
   0.080000000     0.0040526    0.0009339    -0.0000088    0.0000045     0.0000088   -0.0000067     1.0009450   -0.0032788 
   0.120000000     0.0047068    0.0005675    -0.0000009   -0.0000158     0.0000125   -0.0000110     1.0011730   -0.0063871 
   0.160000000     0.0050358    0.0005661    -0.0000011   -0.0000071     0.0000092    0.0000208     1.0004900   -0.0069514 
   0.200000000     0.0050100    0.0002387    -0.0000132   -0.0000172     0.0000038   -0.0000343     1.0009480   -0.0075513 
   0.240000000     0.0053946   -0.0000788    -0.0000053   -0.0000092     0.0000036   -0.0000111     1.0006130   -0.0086228 
   0.280000000     0.0055317    0.0000485    -0.0000149    0.0000093    -0.0000181   -0.0000079     1.0007690   -0.0093676 
   0.320000000     0.0052658   -0.0004172     0.0000113    0.0000082    -0.0000292    0.0000094     1.0002940   -0.0109868 
   0.360000000     0.0056789   -0.0010394    -0.0000006    0.0000023     0.0000042    0.0000002     1.0001980   -0.0130046 
   0.400000000     0.0061025   -0.0008868    -0.0000186   -0.0000387    -0.0000186    0.0000221     1.0009230   -0.0139822 
   0.440000000     0.0058175   -0.0009643    -0.0000195   -0.0000073    -0.0000107   -0.0000001     1.0002370   -0.0163951 
   0.480000000     0.0056688   -0.0016852     0.0000061    0.0000149     0.0000063    0.0000420     0.9998862   -0.0176711 
   0.520000000     0.0064891   -0.0022461     0.0000420   -0.0000260     0.0000459    0.0000003     1.0010510   -0.0183321 
   0.560000000     0.0068261   -0.0016031    -0.0000616    0.0000538     0.0000319    0.0000445     1.0016420   -0.0198595 
   0.600000000     0.0053878   -0.0020459    -0.0000239   -0.0000090     0.0000321   -0.0000087     1.0004630   -0.0222901 
   0.640000000     0.0067667   -0.0037901    -0.0000444   -0.0000087    -0.0000100   -0.0000179     1.0007950   -0.0228356 
   0.680000000     0.0076218   -0.0020419    -0.0000146    0.0000167     0.0000653    0.0000403     1.0017280   -0.0227565 
   0.720000000     0.0050394   -0.0023521     0.0000188    0.0000105     0.0000209    0.0000506     1.0000020   -0.0263177 
   0.760000000     0.0058314   -0.0051489    -0.0000009   -0.0000337    -0.0000097   -0.0000341     0.9999825   -0.0278979 
   0.800000000     0.0079501   -0.0039436     0.0000014    0.0000265    -0.0000114   -0.0000032     1.0009500   -0.0278053 
   0.840000000     0.0057246   -0.0027614    -0.0000100   -0.0000275     0.0000340   -0.0000007     0.9994680   -0.0301294 
   0.880000000     0.0051749   -0.0057694     0.0000194    0.0000249    -0.0000294   -0.0000142     0.9995732   -0.0330709 
   0.920000000     0.0075924   -0.0058914    -0.0000199   -0.0000126    -0.0000063    0.0000050     1.0002720   -0.0321643 
   0.960000000     0.0065551   -0.0040613     0.0000070   -0.0000093    -0.0000111    0.0000373     0.9993006   -0.0338888 
   1.000000000     0.0047501   -0.0061558     0.0000111   -0.0000052     0.0000026    0.0000048     0.9990583   -0.0376593 
   1.040000000     0.0068586   -0.0076159     0.0000277    0.0000442     0.0000034   -0.0000088     1.0005170   -0.0376496 
   1.080000000     0.0070911   -0.0055833    -0.0000024    0.0000205     0.0000058    0.0000163     0.9994938   -0.0376184 
   1.120000000     0.0046699   -0.0067014     0.0000176    0.0000077     0.0000120    0.0000140     0.9986148   -0.0419292 
   1.160000000     0.0057194   -0.0092003    -0.0000169    0.0000179     0.0000396    0.0000101     1.0004040   -0.0434209 
   1.200000000     0.0068149   -0.0081674     0.0000247    0.0000048    -0.0000094    0.0000253     0.9994040   -0.0418985 
   1.240000000     0.0048553   -0.0078451     0.0000004    0.0000236     0.0000330    0.0000182     0.9977870   -0.0449814 
   1.280000000     0.0041518   -0.0102826     0.0000204   -0.0000281     0.0000010    0.0000380     0.9988798   -0.0475104 
   1.320000000     0.0052418   -0.0107048    -0.0000111   -0.0000167     0.0000267    0.0000239     0.9992686   -0.0473649 
   1.360000000     0.0043084   -0.0099523     0.0000213   -0.0000185     0.0000018    0.0000158     0.9987156   -0.0491460 
   1.400000000     0.0028261   -0.0108504    -0.0000021    0.0000170    -0.0000290    0.0000357     0.9984667   -0.0520144 
   1.440000000     0.0027127   -0.0117028     0.0000020   -0.0000484     0.0000358    0.0000100     0.9984301   -0.0519312 
   1.480000000     0.0023057   -0.0115463    -0.0000174    0.0000101     0.0000246    0.0000137     0.9983421   -0.0532212 
   1.520000000     0.0011724   -0.0115777    -0.0000193    0.0000156     0.0000050    0.0000119     0.9981199   -0.0554033 
   1.560000000     0.0006501   -0.0120080     0.0000157    0.0000195    -0.0000009    0.0000492     0.9981621   -0.0568057 
   1.600000000     0.0003339   -0.0118769     0.0000230   -0.0000068    -0.0000146   -0.0000067     0.9980229   -0.0576377 
   1.640000000    -0.0004625   -0.0115912     0.0000009   -0.0000382     0.0000246    0.0000091     0.9978703   -0.0589292 
   1.680000000    -0.0011939   -0.0118406    -0.0000099    0.0000332     0.0000363   -0.0000329     0.9978487   -0.0612887 
   1.720000000    -0.0013132   -0.0116838    -0.0000679   -0.0000287    -0.0000018    0.0000225     0.9976912   -0.0619184 
   1.760000000    -0.0019346   -0.0111201     0.0000154    0.0000036    -0.0000008   -0.0000111     0.9978610   -0.0631245 
   1.800000000    -0.0029467   -0.0114911     0.0000228    0.0000328     0.0000189   -0.0000064     0.9972566   -0.0657553 
   1.840000000    -0.0025752   -0.0117583    -0.0000292   -0.0000581    -0.0000051   -0.0000511     0.9974949   -0.0655224 
   1.880000000    -0.0028220   -0.0107313    -0.0000144    0.0000307    -0.0000005   -0.0000197     0.9971232   -0.0666579 
   1.920000000    -0.0041449   -0.0108499    -0.0000194    0.0000264    -0.0000479    0.0000070     0.9972040   -0.0688821 
   1.960000000    -0.0037061   -0.0116560    -0.0000252   -0.0000255    -0.0000276   -0.0000148     0.9975412   -0.0705997 
   2.000000000    -0.0016257   -0.0109813     0.0000065    0.0000185     0.0000298    0.0000083     0.9961655   -0.0720941 
   2.040000000    -0.0039221   -0.0109398     0.0000611   -0.0000060     0.0000036    0.0000203     0.9963806   -0.0744109 
   2.080000000    -0.0039457   -0.0132058     0.0000414    0.0000357     0.0000113    0.0000022     0.9975296   -0.0753100 
   2.120000000    -0.0023467   -0.0118064     0.0000233    0.0000006    -0.0000190    0.0000173     0.9970984   -0.0769195 
   2.160000000    -0.0047400   -0.0104273     0.0000550    0.0000637     0.0000052   -0.0000506     0.9965789   -0.0796506 
   2.200000000    -0.0057030   -0.0128674     0.0000301    0.0000561     0.0000178   -0.0000454     0.9975202   -0.0805727 
   2.240000000    -0.0029931   -0.0130358     0.0000365   -0.0000398     0.0000094   -0.0000104     0.9958116   -0.0800295 
   2.280000000    -0.0037767   -0.0100498     0.0000131    0.0000247     0.0000158   -0.0000577     0.9956379   -0.0830751 
   2.320000000    -0.0064611   -0.0118645    -0.0000128   -0.0000532    -0.0001040    0.0000494     0.9992001   -0.0832722 
   2.360000000    -0.0028447   -0.0133181    -0.0000282    0.0000548     0.0000191    0.0000322     0.9983022   -0.0825637 
   2.400000000    -0.0013214   -0.0077831    -0.0000085    0.0000537     0.0000079    0.0000558     0.9952068   -0.0852833 
   2.440000000    -0.0080160   -0.0072856    -0.0001103   -0.0000892    -0.0000740   -0.0000475     0.9989802   -0.0898657 
   2.480000000    -0.0066005   -0.0136376     0.0000273   -0.0000196    -0.0000816    0.0000677     1.0000070   -0.0874021 
   2.520000000    -0.0047019   -0.0101641    -0.0000166   -0.0000038    -0.0000839    0.0000043     0.9952129   -0.0927430 
   2.560000000    -0.0046108   -0.0091794    -0.0000409    0.0000382     0.0000172    0.0000120     0.9948322   -0.0937690 
   2.600000000    -0.0051941   -0.0089770    -0.0000041   -0.0000065     0.0000697   -0.0000784     0.9948374   -0.0952575 
   2.640000000    -0.0050316   -0.0094463    -0.0000185   -0.0000002    -0.0000674    0.0000077     0.9951317   -0.0961680 
   2.680000000    -0.0047393   -0.0090180    -0.0000466    0.0000073    -0.0000329    0.0000250     0.9937620   -0.0977558 
   2.720000000    -0.0053222   -0.0086089    -0.0000163    0.0000210    -0.0000115   -0.0000034     0.9946007   -0.0991968 
   2.760000000    -0.0057034   -0.0088173    -0.0000194    0.0000239    -0.0000307   -0.0000035     0.9953818   -0.1006965 
   2.800000000    -0.0055323   -0.0090046    -0.0000262   -0.0000171    -0.0000071    0.0000055     0.9944981   -0.1018343 
   2.840000000    -0.0058183   -0.0086532    -0.0000165   -0.0000241    -0.0000076   -0.0000045     0.9939889   -0.1037182 
   2.880000000    -0.0060847   -0.0084619    -0.0000141   -0.0000017     0.0000786    0.0000046     0.9952930   -0.1052830 
   2.920000000    -0.0065099   -0.0083764     0.0000119   -0.0000072     0.0000232    0.0000349     0.9946561   -0.1073044 
   2.960000000    -0.0066322   -0.0086140    -0.0000390    0.0000046     0.0000210   -0.0000308     0.9937693   -0.1078709 
   3.000000000    -0.0066258   -0.0084687     0.0000265   -0.0000324     0.0000281    0.0000590     0.9942671   -0.1100391 
   3.040000000    -0.0069128   -0.0077753    -0.0000032    0.0000192     0.0000119    0.0000137     0.9943753   -0.1119419 
   3.080000000    -0.0075261   -0.0080020    -0.0000056    0.0000230     0.0000212    0.0000193     0.9926595   -0.1127095 
   3.120000000    -0.0072668   -0.0083651    -0.0000268   -0.0000732     0.0000088    0.0000491     0.9929152   -0.1144794 
   3.160000000    -0.0071864   -0.0078581     0.0000065    0.0000332    -0.0000036    0.0000361     0.9927530   -0.1166061 
   3.200000000    -0.0078738   -0.0072974     0.0000015    0.0000147    -0.0000450   -0.0000088     0.9922637   -0.1172787 
   3.240000000    -0.0082197   -0.0076880     0.0000134   -0.0000250    -0.0000037    0.0000181     0.9912531   -0.1179929 
   3.280000000    -0.0077934   -0.0078572     0.0000141   -0.0000236    -0.0000113   -0.0000110     0.9913622   -0.1195791 
   3.320000000    -0.0078985   -0.0070288    -0.0000130   -0.0000137     0.0000205   -0.0000095     0.9912885   -0.1216542 
   3.360000000    -0.0087221   -0.0068110    -0.0000070    0.0000010    -0.0000121    0.0000198     0.9910836   -0.1211196 
   3.400000000    -0.0088824   -0.0074187    -0.0000224    0.0000306    -0.0000399   -0.0000847     0.9914275   -0.1233038 
   3.440000000    -0.0084150   -0.0071247    -0.0000464   -0.0000374     0.0000111   -0.0000342     0.9907264   -0.1253360 
   3.480000000    -0.0087719   -0.0063156    -0.0000034   -0.0000061     0.0000087   -0.0000226     0.9905114   -0.1264042 
   3.520000000    -0.0096392   -0.0064808    -0.0000489   -0.0000243     0.0000300   -0.0000473     0.9909251   -0.1265182 
   3.560000000    -0.0095158   -0.0068686     0.0000274   -0.0000061    -0.0000453    0.0000268     0.9909627   -0.1287201 
   3.600000000    -0.0092218   -0.0061403     0.0000023    0.0000067     0.0000006    0.0000028     0.9903326   -0.1301109 
   3.640000000    -0.0098506   -0.0056892     0.0000007   -0.0000094     0.0000236    0.0000321     0.9908352   -0.1302272 
   3.680000000    -0.0104275   -0.0059078    -0.0000295    0.0000012     0.0000232   -0.0000155     0.9906158   -0.1320929 
   3.720000000    -0.0101805   -0.0059087    -0.0000245   -0.0000186    -0.0000148    0.0000170     0.9898353   -0.1338785 
   3.760000000    -0.0102540   -0.0052803     0.0000298   -0.0000740     0.0000070   -0.0000275     0.9896840   -0.1353899 
   3.800000000    -0.0108669   -0.0050242    -0.0000111    0.0000364     0.0000181    0.0000000     0.9901114   -0.1363651 
   3.840000000    -0.0110591   -0.0051746    -0.0000270   -0.0000268    -0.0000236   -0.0000171     0.9899157   -0.1375168 
   3.880000000    -0.0108273   -0.0049011     0.0000066   -0.0000246    -0.0000027   -0.0000082     0.9883409   -0.1391628 
   3.920000000    -0.0110512   -0.0043942     0.0000486   -0.0000432     0.0000016   -0.0000196     0.9894055   -0.1408478 
   3.960000000    -0.0114545   -0.0043260    -0.0000104    0.0000194    -0.0000032    0.0000408     0.9890957   -0.1419265 
   4.000000000    -0.0113950   -0.0043068     0.0000101   -0.0000139    -0.0000067   -0.0000248     0.9885809   -0.1429837 
   4.040000000    -0.0113155   -0.0039625     0.0000119   -0.0000081    -0.0000082   -0.0000526     0.9876436   -0.1442962 
   4.080000000    -0.0115143   -0.0036370     0.0000010    0.0000349     0.0000219    0.0000090     0.9880189   -0.1468222 
   4.120000000    -0.0117172   -0.0034827     0.0000178   -0.0000169     0.0000131    0.0000450     0.9873969   -0.1478831 
   4.160000000    -0.0117200   -0.0034265     0.0000006    0.0000106    -0.0000101    0.0000054     0.9870723   -0.1484304 
   4.200000000    -0.0117273   -0.0031714     0.0000163   -0.0000293     0.0000064   -0.0000369     0.9869444   -0.1495946 
   4.240000000    -0.0118035   -0.0029271     0.0000031    0.0000072     0.0000194   -0.0000303     0.9867128   -0.1516544 
   4.280000000    -0.0119179   -0.0028316     0.0000130   -0.0000201    -0.0000324    0.0000005     0.9859557   -0.1525361 
   4.320000000    -0.0118972   -0.0026637     0.0000117   -0.0000298     0.0000089   -0.0000529     0.9863500   -0.1524989 
   4.360000000    -0.0120311   -0.0024530    -0.0000028   -0.0000061    -0.0000094   -0.0000061     0.9861707   -0.1547972 
   4.400000000    -0.0120970   -0.0023675    -0.0000224    0.0000186    -0.0000105   -0.0000006     0.9851066   -0.1559277 
   4.440000000    -0.0121356   -0.0020949    -0.0000258   -0.0000230    -0.0000200    0.0000142     0.9854575   -0.1559773 
   4.480000000    -0.0122744   -0.0018582    -0.0000416   -0.0000075     0.0000057    0.0000184     0.9847201   -0.1578305 
   4.520000000    -0.0124243   -0.0016535     0.0000093   -0.0000107    -0.0000036    0.0000331     0.9851319   -0.1597640 
   4.560000000    -0.0124486   -0.0013718     0.0000066    0.0000115     0.0000300    0.0000247     0.9844504   -0.1615871 
   4.600000000    -0.0125334   -0.0010842     0.0000047    0.0000021    -0.0000273   -0.0000166     0.9853100   -0.1619352 
   4.640000000    -0.0126951   -0.0008007     0.0000239    0.0000305     0.0000484   -0.0000050     0.9847487   -0.1629302 
   4.680000000    -0.0128344   -0.0005750     0.0000313    0.0000226     0.0000107   -0.0000194     0.9846789   -0.1651045 
   4.720000000    -0.0126775   -0.0001931     0.0000200   -0.0000205     0.0000132    0.0000091     0.9842709   -0.1648978 
   4.760000000    -0.0128562    0.0002019     0.0000035   -0.0000514     0.0000157   -0.0000266     0.9839342   -0.1668177 
   4.800000000    -0.0130699    0.0003837     0.0000272   -0.0000101    -0.0000168    0.0000154     0.9841052   -0.1680827 
   4.840000000    -0.0128501    0.0006573    -0.0000012    0.0000052     0.0000001    0.0000156     0.9831564   -0.1688440 
   4.880000000    -0.0128482    0.0013384    -0.0000078    0.0000049     0.0000357    0.0000136     0.9837827   -0.1694027 
   4.920000000    -0.0131006    0.0017989    -0.0000172   -0.0000336    -0.0000077    0.0000029     0.9826562   -0.1717512 
   4.960000000    -0.0131968    0.0020449     0.0000011    0.0000057     0.0000024   -0.0000098     0.9821801   -0.1714199 
   5.000000000    -0.0128007    0.0024034     0.0000090   -0.0000095     0.0000410    0.0000324     0.9816877   -0.1732249 
   5.040000000    -0.0127229    0.0033842     0.0000325    0.0000028     0.0000707    0.0000010     0.9817943   -0.1750051 
   5.080000000    -0.0130278    0.0036606     0.0000097   -0.0000379    -0.0000540    0.0000083     0.9807838   -0.1760762 
   5.120000000    -0.0128576    0.0038776    -0.0000071    0.0000457     0.0000039   -0.0000446     0.9815437   -0.1768582 
   5.160000000    -0.0123798    0.0045521    -0.0000020    0.0000071     0.0000520    0.0000296     0.9814377   -0.1782132 
   5.200000000    -0.0123723    0.0052636     0.0000529    0.0000148    -0.0000003    0.0000286     0.9814469   -0.1791937 
   5.240000000    -0.0125090    0.0054398     0.0000029   -0.0000270     0.0000683    0.0000237     0.9810200   -0.1791936 
   5.280000000    -0.0119150    0.0057171     0.0000267   -0.0000062    -0.0000238   -0.0000228     0.9802554   -0.1814021 
   5.320000000    -0.0114934    0.0064355    -0.0000083   -0.0000001    -0.0000442    0.0000178     0.9804235   -0.1821473 
   5.360000000    -0.0115694    0.0069667     0.0000345    0.0000189     0.0000523   -0.0000092     0.9798782   -0.1829835 
   5.400000000    -0.0115347    0.0068392    -0.0000243   -0.0000420     0.0000454   -0.0000044     0.9799074   -0.1842279 
   5.440000000    -0.0108674    0.0069678    -0.0000051   -0.0000270     0.0000204   -0.0000424     0.9802697   -0.1849792 
   5.480000000    -0.0105293    0.0076115    -0.0000406    0.0000339     0.0000105   -0.0000166     0.9795359   -0.1875705 
   5.520000000    -0.0106703    0.0079486     0.0000359   -0.0000104     0.0000049   -0.0000412     0.9789878   -0.1877927 
   5.560000000    -0.0103493    0.0076566    -0.0000080   -0.0000524     0.0000023   -0.0000362     0.9784936   -0.1885405 
   5.600000000    -0.0097065    0.0078694     0.0000396   -0.0000094    -0.0000323   -0.0000299     0.9774776   -0.1910949 
   5.640000000    -0.0096229    0.0085546     0.0000232    0.0000067     0.0000020   -0.0000433     0.9783593   -0.1915747 
   5.680000000    -0.0097371    0.0083893    -0.0000078   -0.0000118     0.0000108    0.0000035     0.9775068   -0.1928274 
   5.720000000    -0.0092724    0.0082042    -0.0000020    0.0000256     0.0000014    0.0000039     0.9776973   -0.1941498 
   5.760000000    -0.0087365    0.0087147    -0.0000576   -0.0000011    -0.0000067   -0.0000045     0.9772333   -0.1956232 
   5.800000000    -0.0089219    0.0090273    -0.0000118   -0.0000149    -0.0000322    0.0000064     0.9770303   -0.1965050 
   5.840000000    -0.0086938    0.0088779    -0.0000676    0.0000181    -0.0000175   -0.0000313     0.9765563   -0.1978580 
   5.880000000    -0.0082278    0.0088528     0.0000707    0.0000332     0.0000176    0.0000388     0.9759787   -0.1986429 
   5.920000000    -0.0078447    0.0093096    -0.0000134   -0.0000341    -0.0000118   -0.0000192     0.9758123   -0.2003433 
   5.960000000    -0.0080926    0.0094052    -0.0000039    0.0000169    -0.0000330    0.0000119     0.9759912   -0.2009105 
   6.000000000    -0.0077647    0.0092262    -0.0000016    0.0000151     0.0000117   -0.0000128     0.9756268   -0.2023089 
   6.040000000    -0.0072439    0.0093271     0.0000136   -0.0000184    -0.0000154   -0.0000174     0.9743246   -0.2036293 
   6.080000000    -0.0070789    0.0096778    -0.0000371   -0.0000372     0.0000068   -0.0000014     0.9744856   -0.2056539 
   6.120000000    -0.0071752    0.0096044    -0.0000262    0.0000005    -0.0000232   -0.0000139     0.9743448   -0.2055329 
   6.160000000    -0.0068008    0.0095641     0.0000257   -0.0000088     0.0000127    0.0000133     0.9731973   -0.2066258 
   6.200000000    -0.0063597    0.0098636     0.0000151    0.0000386     0.0000489    0.0000135     0.9725746   -0.2085062 
   6.240000000    -0.0063463    0.0099976    -0.0000008    0.0000104     0.0000322    0.0000097     0.9730877   -0.2102348 
   6.280000000    -0.0063855    0.0099887     0.0000134    0.0000358     0.0000265   -0.0000285     0.9722430   -0.2111063 
