! 3/28/2024 4:22:11 PM
! D:\MS4647AVNA\292M185F 240225XX\24022510.S2P
! CHANNEL.1
! TR.MEASUREMENT
! CORRECTED.DATA
# GHZ S RI R 50.0
! FREQ.GHZ         S11RE         S11IM         S21RE         S21IM         S12RE         S12IM         S22RE         S22IM         
!; PortSelection: Port_12
   0.040000000     0.0033949    0.0011885     0.0000184    0.0000103    -0.0000099    0.0000001     1.0018430   -0.0021111 
   0.080000000     0.0043026    0.0006095    -0.0000061    0.0000000     0.0000116   -0.0000004     1.0007290   -0.0034423 
   0.120000000     0.0049775    0.0006088     0.0000256    0.0000186    -0.0000012   -0.0000109     1.0015620   -0.0059572 
   0.160000000     0.0047549    0.0005321     0.0000120   -0.0000061    -0.0000037   -0.0000076     1.0009340   -0.0055842 
   0.200000000     0.0049949   -0.0005598     0.0000130    0.0000017     0.0000204    0.0000004     1.0005950   -0.0066495 
   0.240000000     0.0059755   -0.0004230     0.0000037   -0.0000037     0.0000171   -0.0000106     1.0006700   -0.0077145 
   0.280000000     0.0052934    0.0002040     0.0000084   -0.0000152    -0.0000111   -0.0000014     1.0005010   -0.0080090 
   0.320000000     0.0046283   -0.0011364     0.0000002   -0.0000070     0.0000035   -0.0000167     1.0002580   -0.0106243 
   0.360000000     0.0059582   -0.0019976    -0.0000111    0.0000015    -0.0000020   -0.0000133     1.0003570   -0.0121951 
   0.400000000     0.0061814   -0.0009555     0.0000148    0.0000093     0.0000036   -0.0000203     1.0011190   -0.0119116 
   0.440000000     0.0050032   -0.0015117    -0.0000023   -0.0000161    -0.0000270   -0.0000204     1.0005080   -0.0152895 
   0.480000000     0.0053999   -0.0031383     0.0000104   -0.0000055     0.0000131    0.0000027     1.0001830   -0.0171223 
   0.520000000     0.0069626   -0.0029900    -0.0000028    0.0000140    -0.0000039    0.0000246     1.0018580   -0.0158470 
   0.560000000     0.0061745   -0.0018926     0.0000193   -0.0000142     0.0000748   -0.0000036     1.0028790   -0.0183689 
   0.600000000     0.0044177   -0.0034205     0.0000722    0.0000107    -0.0000061   -0.0000171     1.0013100   -0.0214590 
   0.640000000     0.0070512   -0.0052424    -0.0000310   -0.0000505     0.0000084    0.0000050     1.0017070   -0.0204299 
   0.680000000     0.0073896   -0.0020671    -0.0000079    0.0000150     0.0000196   -0.0000068     1.0022040   -0.0190887 
   0.720000000     0.0032431   -0.0034080     0.0000239    0.0000215    -0.0000106   -0.0000323     1.0000210   -0.0239878 
   0.760000000     0.0052353   -0.0073362    -0.0000090   -0.0000107    -0.0000055    0.0000279     1.0006450   -0.0253747 
   0.800000000     0.0080018   -0.0044904     0.0000037   -0.0000113     0.0000050   -0.0000183     1.0018850   -0.0235886 
   0.840000000     0.0036450   -0.0030342    -0.0000037    0.0000812     0.0000056   -0.0000106     0.9993170   -0.0271665 
   0.880000000     0.0031543   -0.0080887    -0.0000078    0.0000084    -0.0000293    0.0000169     0.9998571   -0.0308784 
   0.920000000     0.0074705   -0.0072530     0.0000001   -0.0000337    -0.0000100   -0.0000091     1.0013290   -0.0279269 
   0.960000000     0.0048285   -0.0037689    -0.0000109   -0.0000041     0.0000196    0.0000039     0.9993539   -0.0299278 
   1.000000000     0.0016007   -0.0076475    -0.0000188   -0.0000032    -0.0000211   -0.0000069     0.9992374   -0.0357654 
   1.040000000     0.0058719   -0.0096461    -0.0000151   -0.0000037     0.0000036    0.0000179     1.0012850   -0.0336282 
   1.080000000     0.0058347   -0.0049520     0.0000018    0.0000183    -0.0000040   -0.0000018     0.9999506   -0.0324579 
   1.120000000     0.0008436   -0.0065489    -0.0000060   -0.0000293    -0.0000310    0.0000199     0.9987624   -0.0390207 
   1.160000000     0.0031619   -0.0109886    -0.0000008   -0.0000105    -0.0000195    0.0000095     1.0013840   -0.0407036 
   1.200000000     0.0059220   -0.0077762    -0.0000188    0.0000074     0.0000034   -0.0000129     1.0003760   -0.0357534 
   1.240000000     0.0016124   -0.0059276    -0.0000093   -0.0000094    -0.0000175    0.0000219     0.9974561   -0.0404496 
   1.280000000     0.0002843   -0.0103481     0.0000232    0.0000209    -0.0000325   -0.0000146     0.9986852   -0.0444753 
   1.320000000     0.0039998   -0.0106796    -0.0000250    0.0000037     0.0000120    0.0000072     1.0002820   -0.0417356 
   1.360000000     0.0031504   -0.0072880    -0.0000099    0.0000161     0.0000020   -0.0000072     0.9994516   -0.0432121 
   1.400000000    -0.0000029   -0.0086287     0.0000052    0.0000231    -0.0000213    0.0000217     0.9987279   -0.0482671 
   1.440000000     0.0011909   -0.0108614    -0.0000313    0.0000124     0.0000183    0.0000083     0.9993866   -0.0471921 
   1.480000000     0.0022220   -0.0093653     0.0000008   -0.0000294     0.0000139   -0.0000197     0.9995048   -0.0461144 
   1.520000000     0.0001299   -0.0088611    -0.0000201    0.0000006     0.0000247   -0.0000133     0.9983104   -0.0507006 
   1.560000000    -0.0002103   -0.0107280     0.0000045   -0.0000508    -0.0000229    0.0000015     0.9988281   -0.0524528 
   1.600000000     0.0010271   -0.0103436    -0.0000093   -0.0000327    -0.0000051    0.0000058     0.9992577   -0.0514793 
   1.640000000    -0.0002717   -0.0090841     0.0000126   -0.0000141    -0.0000385    0.0000039     0.9987708   -0.0526888 
   1.680000000    -0.0015198   -0.0106215     0.0000001   -0.0000066     0.0000129    0.0000169     0.9980878   -0.0564226 
   1.720000000    -0.0001934   -0.0109926     0.0000240    0.0000619     0.0000055    0.0000413     0.9988237   -0.0555188 
   1.760000000    -0.0008843   -0.0093005     0.0000458   -0.0000059    -0.0000072    0.0000379     0.9989074   -0.0561280 
   1.800000000    -0.0029744   -0.0105763    -0.0000023   -0.0000173    -0.0000230    0.0000085     0.9984790   -0.0603692 
   1.840000000    -0.0013416   -0.0120317    -0.0000060   -0.0000286     0.0000063   -0.0000496     0.9988146   -0.0601824 
   1.880000000    -0.0009686   -0.0095946     0.0000501   -0.0000046     0.0000217   -0.0000108     0.9980745   -0.0592053 
   1.920000000    -0.0040438   -0.0099723    -0.0000018    0.0000531     0.0000104    0.0000219     0.9980847   -0.0634084 
   1.960000000    -0.0027178   -0.0127652    -0.0000033    0.0000351     0.0000116   -0.0000406     0.9991884   -0.0648749 
   2.000000000     0.0008693   -0.0106948    -0.0000235    0.0000224     0.0000167   -0.0000063     0.9974331   -0.0642124 
   2.040000000    -0.0035100   -0.0099076    -0.0000391    0.0000044    -0.0000080   -0.0000132     0.9971156   -0.0675045 
   2.080000000    -0.0038451   -0.0145494     0.0000405    0.0000382    -0.0000359   -0.0000417     0.9990172   -0.0685728 
   2.120000000    -0.0001037   -0.0127211     0.0000526   -0.0000329     0.0000323   -0.0000155     0.9979889   -0.0690878 
   2.160000000    -0.0041638   -0.0097398     0.0000098    0.0000251    -0.0000630   -0.0000031     0.9974359   -0.0729283 
   2.200000000    -0.0063604   -0.0147025    -0.0000142   -0.0000044     0.0000582    0.0000615     0.9987153   -0.0744056 
   2.240000000    -0.0008819   -0.0151471    -0.0000351    0.0000641     0.0000378   -0.0000027     0.9971052   -0.0718588 
   2.280000000    -0.0025942   -0.0094175    -0.0000067    0.0000339     0.0000102    0.0000400     0.9969863   -0.0746431 
   2.320000000    -0.0073056   -0.0138675     0.0000037   -0.0000041    -0.0000686   -0.0000782     1.0040390   -0.0750601 
   2.360000000     0.0004092   -0.0163288    -0.0000392   -0.0000030    -0.0000036    0.0000621     1.0012020   -0.0731079 
   2.400000000     0.0014951   -0.0052344     0.0000774    0.0000862    -0.0000020    0.0000446     0.9949548   -0.0762976 
   2.440000000    -0.0114091   -0.0064325     0.0001388    0.0001019     0.0000347   -0.0000494     1.0029670   -0.0820027 
   2.480000000    -0.0065993   -0.0197139     0.0000339    0.0000038    -0.0000158   -0.0000332     1.0050120   -0.0737771 
   2.520000000    -0.0045603   -0.0118628    -0.0000412    0.0000286    -0.0000402   -0.0000218     0.9932559   -0.0886588 
   2.560000000    -0.0044432   -0.0109605    -0.0000541    0.0000307    -0.0000103    0.0000216     0.9942502   -0.0874813 
   2.600000000    -0.0051134   -0.0107415    -0.0000583   -0.0000490    -0.0000075   -0.0000373     0.9936410   -0.0903348 
   2.640000000    -0.0052691   -0.0113307     0.0000032    0.0000027     0.0000316   -0.0000404     0.9930885   -0.0903105 
   2.680000000    -0.0048479   -0.0109651    -0.0000115   -0.0000063    -0.0000515   -0.0000466     0.9941741   -0.0909747 
   2.720000000    -0.0055821   -0.0104185    -0.0000195   -0.0000164    -0.0000255   -0.0000328     0.9939000   -0.0919344 
   2.760000000    -0.0063266   -0.0108928     0.0000497    0.0000084     0.0000547    0.0000348     0.9943785   -0.0944777 
   2.800000000    -0.0059796   -0.0112831    -0.0000211    0.0000091     0.0000280    0.0000347     0.9928800   -0.0954829 
   2.840000000    -0.0063605   -0.0105491     0.0000245   -0.0000224     0.0000276    0.0000050     0.9935828   -0.0969065 
   2.880000000    -0.0069330   -0.0103313     0.0000036    0.0000136     0.0000289    0.0000323     0.9940111   -0.0994642 
   2.920000000    -0.0075023   -0.0106748    -0.0000024   -0.0000400    -0.0000156   -0.0000053     0.9943321   -0.1014032 
   2.960000000    -0.0074692   -0.0109224    -0.0000042    0.0000225    -0.0000004   -0.0000172     0.9933425   -0.1027020 
   3.000000000    -0.0077013   -0.0104459     0.0000157   -0.0000075    -0.0000131    0.0000103     0.9951912   -0.1033379 
   3.040000000    -0.0084038   -0.0097532     0.0000069    0.0000003    -0.0000186   -0.0000376     0.9947344   -0.1072838 
   3.080000000    -0.0090977   -0.0102399     0.0000181   -0.0000087    -0.0000157    0.0000266     0.9919459   -0.1059296 
   3.120000000    -0.0084171   -0.0105975     0.0000078   -0.0000464    -0.0000109   -0.0000330     0.9938198   -0.1088547 
   3.160000000    -0.0085266   -0.0096494    -0.0000254   -0.0000232     0.0000191   -0.0000110     0.9940602   -0.1113694 
   3.200000000    -0.0099266   -0.0090912    -0.0000094   -0.0000190    -0.0000265    0.0000156     0.9927343   -0.1117549 
   3.240000000    -0.0102624   -0.0100082     0.0000122    0.0000015     0.0000370    0.0000139     0.9921058   -0.1116629 
   3.280000000    -0.0094158   -0.0099917    -0.0000281    0.0000188    -0.0000434   -0.0000513     0.9934947   -0.1145304 
   3.320000000    -0.0096964   -0.0085933    -0.0000044    0.0000216     0.0000711    0.0000029     0.9916257   -0.1173019 
   3.360000000    -0.0111334   -0.0085770     0.0000076   -0.0000155     0.0000220   -0.0000134     0.9923014   -0.1147931 
   3.400000000    -0.0110561   -0.0096544    -0.0000038    0.0000429     0.0000191    0.0000274     0.9936897   -0.1179176 
   3.440000000    -0.0103193   -0.0088822     0.0000113   -0.0000381     0.0000004    0.0000231     0.9920595   -0.1199526 
   3.480000000    -0.0111338   -0.0076141     0.0000165   -0.0000028    -0.0000233   -0.0000092     0.9913614   -0.1209677 
   3.520000000    -0.0123805   -0.0080338     0.0000042   -0.0000084    -0.0000143    0.0000333     0.9927170   -0.1213779 
   3.560000000    -0.0119786   -0.0087222    -0.0000311   -0.0000002    -0.0000120    0.0000451     0.9933336   -0.1236996 
   3.600000000    -0.0114143   -0.0076272    -0.0000009    0.0000161     0.0000114   -0.0000138     0.9907839   -0.1255777 
   3.640000000    -0.0124816   -0.0067214     0.0000421   -0.0000266    -0.0000040   -0.0000546     0.9921442   -0.1247472 
   3.680000000    -0.0133943   -0.0073232     0.0000225    0.0000026     0.0000262   -0.0000187     0.9931504   -0.1273486 
   3.720000000    -0.0127618   -0.0074754    -0.0000275   -0.0000129    -0.0000119   -0.0000363     0.9907460   -0.1291556 
   3.760000000    -0.0127190   -0.0063697     0.0000119    0.0000003     0.0000378    0.0000030     0.9905491   -0.1304250 
   3.800000000    -0.0138040   -0.0058939    -0.0000568    0.0000135     0.0000015    0.0000332     0.9918931   -0.1316515 
   3.840000000    -0.0140710   -0.0064088     0.0000302   -0.0000315     0.0000173    0.0000191     0.9917114   -0.1342530 
   3.880000000    -0.0135543   -0.0061497    -0.0000030   -0.0000109    -0.0000070   -0.0000149     0.9893470   -0.1345399 
   3.920000000    -0.0137556   -0.0050720    -0.0000249    0.0000103     0.0000047    0.0000082     0.9907362   -0.1364563 
   3.960000000    -0.0146224   -0.0050012     0.0000030    0.0000364     0.0000449   -0.0000175     0.9909950   -0.1386323 
   4.000000000    -0.0145511   -0.0052931    -0.0000062   -0.0000166    -0.0000124   -0.0000067     0.9895723   -0.1392122 
   4.040000000    -0.0141642   -0.0047931     0.0000183    0.0000329    -0.0000395    0.0000137     0.9886529   -0.1389197 
   4.080000000    -0.0143835   -0.0039822     0.0000100   -0.0000003    -0.0000271   -0.0000279     0.9901569   -0.1419656 
   4.120000000    -0.0149393   -0.0038509    -0.0000289   -0.0000105     0.0000249   -0.0000341     0.9887906   -0.1432733 
   4.160000000    -0.0148919   -0.0039563    -0.0000119   -0.0000098    -0.0000411    0.0000084     0.9878461   -0.1431327 
   4.200000000    -0.0147132   -0.0035304    -0.0000169   -0.0000240    -0.0000379   -0.0000661     0.9879391   -0.1443132 
   4.240000000    -0.0148967   -0.0030631     0.0000331    0.0000062    -0.0000026   -0.0000018     0.9880772   -0.1480165 
   4.280000000    -0.0151740   -0.0029270     0.0000042   -0.0000277    -0.0000274    0.0000222     0.9868627   -0.1481571 
   4.320000000    -0.0151185   -0.0028571    -0.0000012   -0.0000101    -0.0000219    0.0000146     0.9877546   -0.1468770 
   4.360000000    -0.0150923   -0.0024616     0.0000115    0.0000053     0.0000246    0.0000098     0.9883692   -0.1515434 
   4.400000000    -0.0152971   -0.0021900     0.0000347   -0.0000295    -0.0000029   -0.0000017     0.9861819   -0.1516365 
   4.440000000    -0.0153081   -0.0018915    -0.0000035   -0.0000027     0.0000152   -0.0000230     0.9868658   -0.1513246 
   4.480000000    -0.0154850   -0.0016133     0.0000025   -0.0000225    -0.0000277   -0.0000260     0.9866310   -0.1523799 
   4.520000000    -0.0155409   -0.0013221    -0.0000163    0.0000017     0.0000229    0.0000386     0.9870052   -0.1559655 
   4.560000000    -0.0155644   -0.0009556    -0.0000235    0.0000528     0.0000327    0.0000229     0.9854090   -0.1562055 
   4.600000000    -0.0156737   -0.0004297    -0.0000002   -0.0000027     0.0000154   -0.0000002     0.9872522   -0.1572817 
   4.640000000    -0.0159575   -0.0001587    -0.0000240    0.0000186    -0.0000211    0.0000024     0.9868016   -0.1595524 
   4.680000000    -0.0159357   -0.0000469     0.0000085    0.0000150     0.0000056   -0.0000160     0.9856578   -0.1598372 
   4.720000000    -0.0156689    0.0005149     0.0000154   -0.0000100    -0.0000326   -0.0000242     0.9858903   -0.1607659 
   4.760000000    -0.0160334    0.0012507     0.0000108   -0.0000093     0.0000407    0.0000374     0.9855859   -0.1623998 
   4.800000000    -0.0162947    0.0012676     0.0000363   -0.0000082     0.0000487    0.0000195     0.9855876   -0.1638227 
   4.840000000    -0.0158987    0.0014346    -0.0000132   -0.0000267    -0.0000127   -0.0000171     0.9845959   -0.1641438 
   4.880000000    -0.0156946    0.0023574     0.0000026   -0.0000146     0.0000333    0.0000045     0.9853298   -0.1646998 
   4.920000000    -0.0160896    0.0032162     0.0000473   -0.0000204     0.0000115    0.0000317     0.9839659   -0.1680148 
   4.960000000    -0.0164066    0.0031688     0.0000021    0.0000051    -0.0000093    0.0000397     0.9833959   -0.1662768 
   5.000000000    -0.0156437    0.0034252    -0.0000181    0.0000005     0.0000058   -0.0000166     0.9836650   -0.1680822 
   5.040000000    -0.0152920    0.0047072     0.0000095   -0.0000194    -0.0000292    0.0000348     0.9832079   -0.1708952 
   5.080000000    -0.0161111    0.0053444    -0.0000331   -0.0000370     0.0000253    0.0000052     0.9823149   -0.1710066 
   5.120000000    -0.0160088    0.0051478     0.0000162   -0.0000246    -0.0000059    0.0000105     0.9832996   -0.1710177 
   5.160000000    -0.0149220    0.0057253     0.0000095   -0.0000156     0.0000388   -0.0000356     0.9831753   -0.1739017 
   5.200000000    -0.0148476    0.0072241     0.0000249   -0.0000113    -0.0000126   -0.0000035     0.9827543   -0.1749935 
   5.240000000    -0.0155913    0.0073698     0.0000171    0.0000035     0.0000113   -0.0000128     0.9827434   -0.1743833 
   5.280000000    -0.0149133    0.0071157     0.0000112    0.0000041    -0.0000158    0.0000046     0.9819388   -0.1752669 
   5.320000000    -0.0136969    0.0080520    -0.0000365    0.0000014    -0.0000427    0.0000121     0.9816815   -0.1780119 
   5.360000000    -0.0138494    0.0093169     0.0000484    0.0000290    -0.0000617   -0.0000163     0.9810513   -0.1787982 
   5.400000000    -0.0144850    0.0090323    -0.0000135   -0.0000032    -0.0000330   -0.0000124     0.9823222   -0.1774448 
   5.440000000    -0.0133641    0.0085705     0.0000163    0.0000169     0.0000199    0.0000349     0.9818299   -0.1807199 
   5.480000000    -0.0124577    0.0096881    -0.0000033   -0.0000553     0.0000045    0.0000067     0.9801413   -0.1829652 
   5.520000000    -0.0128976    0.0106855     0.0000315   -0.0000209     0.0000438   -0.0000174     0.9812801   -0.1827427 
   5.560000000    -0.0131513    0.0099764    -0.0000019   -0.0000111    -0.0000015   -0.0000002     0.9804815   -0.1829545 
   5.600000000    -0.0118215    0.0097370     0.0000231    0.0000111     0.0000258    0.0000182     0.9782581   -0.1866803 
   5.640000000    -0.0112398    0.0110134    -0.0000062    0.0000040     0.0000306    0.0000265     0.9792789   -0.1870901 
   5.680000000    -0.0118709    0.0113101    -0.0000180    0.0000001    -0.0000557   -0.0000087     0.9799445   -0.1866862 
   5.720000000    -0.0116426    0.0105333    -0.0000278    0.0000341    -0.0000479   -0.0000292     0.9792859   -0.1891471 
   5.760000000    -0.0104382    0.0107691    -0.0000285   -0.0000173    -0.0000041    0.0000168     0.9778556   -0.1905790 
   5.800000000    -0.0102984    0.0118414     0.0000339   -0.0000111    -0.0000064    0.0000006     0.9791667   -0.1918145 
   5.840000000    -0.0107389    0.0119359     0.0000028   -0.0000096    -0.0000119   -0.0000254     0.9788705   -0.1932813 
   5.880000000    -0.0102678    0.0112965    -0.0000292   -0.0000098     0.0000174    0.0000599     0.9768911   -0.1939010 
   5.920000000    -0.0091145    0.0116946    -0.0000027    0.0000162    -0.0000069   -0.0000320     0.9767938   -0.1956325 
   5.960000000    -0.0093132    0.0125973     0.0000156   -0.0000146    -0.0000160   -0.0000173     0.9785610   -0.1959308 
   6.000000000    -0.0095263    0.0123595     0.0000197   -0.0000887    -0.0000043    0.0000157     0.9775279   -0.1964304 
   6.040000000    -0.0088491    0.0118514     0.0000065   -0.0000259    -0.0000324   -0.0000109     0.9753319   -0.1987443 
   6.080000000    -0.0079843    0.0124305     0.0000019   -0.0000164    -0.0000014    0.0000102     0.9763247   -0.2013781 
   6.120000000    -0.0082020    0.0128832    -0.0000100    0.0000119    -0.0000191   -0.0000032     0.9763122   -0.2016032 
   6.160000000    -0.0082254    0.0125929    -0.0000021    0.0000273    -0.0000081   -0.0000008     0.9742532   -0.2012153 
   6.200000000    -0.0074787    0.0124965     0.0000111   -0.0000076     0.0000094   -0.0000350     0.9732698   -0.2035341 
   6.240000000    -0.0070904    0.0129516    -0.0000003    0.0000007    -0.0000198   -0.0000036     0.9748322   -0.2052982 
   6.280000000    -0.0070867    0.0132143     0.0000127    0.0000264     0.0000159    0.0000114     0.9740488   -0.2053251 
